  can0  470   [8]  80 00 01 3A 20 00 00 00
  can0  531   [4]  00 A0 40 E0
  can0  571   [6]  89 5F 00 0B 04 00
  can0  3E1   [8]  20 8B 1D 02 58 00 81 00
  can0  42B   [6]  16 01 00 00 00 00
  can0  2C1   [5]  00 00 80 00 02
  can0  151   [4]  00 A4 98 3C
  can0  35B   [8]  08 00 00 50 20 18 00 00
  can0  363   [8]  65 01 0E 04 65 44 01 0E
  can0  655   [8]  F7 02 60 0F 1E 00 00 DA
  can0  621   [7]  20 04 24 0B 01 25 23
  can0  3C3   [8]  22 00 00 00 80 E0 79 FD
  can0  555   [8]  E0 00 6A 00 2A 00 00 48
  can0  651   [8]  C0 13 54 8F 36 55 C0 00
  can0  470   [8]  80 00 01 3A 20 00 00 00
  can0  531   [4]  00 A0 50 F0
  can0  658   [8]  70 00 00 0E 40 00 00 00
  can0  58C   [8]  00 00 2E 00 00 00 00 00
  can0  351   [8]  00 00 00 00 00 00 00 00
  can0  627   [8]  00 39 39 28 28 3B 3B 28
  can0  436   [6]  0B 01 00 00 00 00
  can0  359   [8]  20 01 00 00 00 6B 40 88
  can0  6C2   [6]  A0 0F 8A FF 4A FF
  can0  365   [8]  41 0E 04 72 0F 09 04 20
  can0  5B5   [8]  02 0D 00 00 00 00 00 0F
  can0  523   [8]  FA 80 00 00 00 00 00 00
  can0  527   [8]  10 01 00 40 7D 8B 8B 00
  can0  2C3   [1]  07
  can0  470   [8]  80 00 01 3A 20 00 00 00
  can0  531   [4]  00 A0 60 C0
  can0  575   [4]  C7 02 00 80
  can0  3E1   [8]  20 8B 1D 02 58 00 81 00
  can0  42B   [6]  16 01 00 00 00 00
  can0  2C1   [5]  00 00 80 00 02
  can0  3E3   [8]  19 11 95 00 00 79 00 00
  can0  151   [4]  00 A4 E8 4C
  can0  35B   [8]  08 00 00 50 20 18 00 00
  can0  653   [3]  82 02 84
  can0  363   [8]  65 01 0E 04 65 44 01 0E
  can0  621   [7]  20 04 24 0B 01 25 23
  can0  3C3   [8]  22 00 00 00 80 80 A7 5D
  can0  635   [3]  25 00 23
  can0  555   [8]  E0 00 6A 00 2A 00 00 48
  can0  651   [8]  C0 13 54 8F 36 55 C0 00
  can0  470   [8]  80 00 01 3A 20 00 00 00
  can0  531   [4]  00 A0 70 D0
  can0  65F   [8]  01 46 46 41 46 4B 34 41
  can0  658   [8]  70 00 00 0E 40 00 00 00
  can0  58C   [8]  00 00 2E 00 00 00 00 00
  can0  351   [8]  00 00 00 00 00 00 00 00
  can0  436   [6]  0B 01 00 00 00 00
  can0  359   [8]  20 01 00 00 00 6B 40 88
  can0  6C2   [1]  A8
  can0  365   [8]  41 0E 04 72 0F 09 04 20
  can0  2C3   [1]  07
  can0  470   [8]  80 00 01 3A 20 00 00 00
  can0  531   [4]  00 A0 80 20
  can0  3E1   [8]  20 8B 1D 02 58 00 81 00
  can0  42B   [6]  16 01 00 00 00 00
  can0  2C1   [5]  00 00 80 00 02
  can0  151   [4]  00 A4 38 9C
  can0  35B   [8]  08 00 00 50 20 18 00 00
  can0  363   [8]  65 01 0E 04 65 44 01 0E
  can0  621   [7]  20 04 24 0B 01 25 23
  can0  3C3   [8]  22 00 00 00 80 20 EA BD
  can0  555   [8]  E0 00 6A 00 2A 00 00 48
  can0  651   [8]  C0 13 54 8F 36 55 C0 00
  can0  470   [8]  80 00 01 3A 20 00 00 00
  can0  531   [4]  00 A0 90 30
  can0  436   [6]  0B 01 00 00 00 00
  can0  658   [8]  70 00 00 0E 40 00 00 00
  can0  58C   [8]  00 00 2E 00 00 00 00 00
  can0  351   [8]  00 00 00 00 00 00 00 00
  can0  359   [8]  20 01 00 00 00 6B 40 88
  can0  365   [8]  41 0E 04 72 0F 09 04 20
  can0  5B5   [8]  08 07 00 00 00 00 00 0F
  can0  5C3   [2]  39 00
  can0  6C2   [6]  A0 0F 8A FF 4A FF
  can0  523   [8]  FA 80 00 00 00 00 00 00
  can0  527   [8]  10 01 00 40 7D 8B 8B 00
  can0  6DB   [3]  30 4F 00
  can0  2C3   [1]  07
  can0  470   [8]  80 00 01 3A 20 00 00 00
  can0  42B   [6]  16 01 00 00 00 00
  can0  531   [4]  00 A0 A0 00
  can0  575   [4]  C7 02 00 80
  can0  3E1   [8]  20 8B 1C 02 58 00 81 00
  can0  2C1   [5]  00 00 80 00 02
  can0  151   [4]  00 A4 88 2C
  can0  35B   [8]  08 00 00 50 20 18 00 00
  can0  363   [8]  01 0E 04 65 44 01 0E 03
  can0  621   [7]  20 04 24 0B 01 25 23
  can0  3C3   [8]  22 00 00 00 80 C0 33 1D
  can0  635   [3]  25 00 23
  can0  555   [8]  E0 00 6A 00 2A 00 00 48
  can0  651   [8]  C0 13 54 8F 36 55 C0 00
  can0  470   [8]  80 00 01 3A 20 00 00 00
  can0  531   [4]  00 A0 B0 10
  can0  436   [6]  0B 01 00 00 00 00
  can0  65F   [8]  02 31 30 31 39 36 31 33
  can0  658   [8]  70 00 00 0E 40 00 00 00
  can0  58C   [8]  00 00 2E 00 00 00 00 00
  can0  351   [8]  00 00 00 00 00 00 00 00
  can0  359   [8]  20 01 00 00 00 6B 40 88
  can0  365   [8]  41 0E 04 72 0F 09 04 20
  can0  6C2   [6]  A0 0F 8A FF 4A FF
  can0  2C3   [1]  07
  can0  470   [8]  80 00 01 3A 20 00 00 00
  can0  42B   [6]  16 01 00 00 00 00
  can0  531   [4]  00 A0 C0 60
  can0  3E1   [8]  20 8B 1D 02 58 00 81 00
  can0  2C1   [5]  00 00 80 00 02
  can0  151   [4]  00 A4 D8 7C
  can0  35B   [8]  08 00 00 50 20 18 00 00
  can0  557   [8]  60 00 00 00 1C 00 00 48
  can0  363   [8]  01 0E 04 65 44 01 0E 03
  can0  621   [7]  20 04 24 0B 01 25 23
  can0  3C3   [8]  22 00 00 00 80 60 7E 7D
  can0  555   [8]  E0 00 6A 00 2A 00 00 48
  can0  651   [8]  C0 13 54 8F 36 55 C0 00
  can0  470   [8]  80 00 01 3A 20 00 00 00
  can0  531   [4]  00 A0 D0 70
  can0  436   [6]  0B 01 00 00 00 00
  can0  658   [8]  70 00 00 0E 40 00 00 00
  can0  58C   [8]  00 00 2E 00 00 00 00 00
  can0  351   [8]  00 00 00 00 00 00 00 00
  can0  6C1   [1]  A3
  can0  359   [8]  20 01 00 00 00 6B 40 88
  can0  5B5   [8]  0E 01 00 00 00 00 00 0F
  can0  6C0   [6]  A1 0F 8A FF 4A FF
  can0  365   [8]  41 0E 04 72 0F 09 04 20
  can0  523   [8]  FA 80 00 00 00 00 00 00
  can0  6C2   [6]  A0 0F 8A FF 4A FF
  can0  527   [8]  10 01 00 40 7D 8B 8B 00
  can0  2C3   [1]  07
  can0  470   [8]  80 00 01 3A 20 00 00 00
  can0  42B   [6]  16 01 00 00 00 00
  can0  531   [4]  00 A0 E0 40
  can0  571   [6]  89 5F 00 0B 04 00
  can0  575   [4]  C7 02 00 80
  can0  3E1   [8]  20 8B 1E 02 58 00 81 00
  can0  2C1   [5]  00 00 80 00 02
  can0  151   [4]  00 A4 28 8C
  can0  35B   [8]  08 00 00 50 20 18 00 00
  can0  655   [8]  F7 02 60 0F 1E 00 00 DA
  can0  363   [8]  01 0E 04 65 44 01 0E 03
  can0  621   [7]  20 04 24 0B 01 25 23
  can0  3C3   [8]  22 00 00 00 80 00 A0 DD
  can0  635   [3]  25 00 23
  can0  555   [8]  E0 00 6A 00 2A 00 00 48
  can0  436   [6]  0B 01 00 00 00 00
  can0  651   [8]  C0 13 54 8F 36 55 C0 00
  can0  470   [8]  80 00 01 3A 20 00 00 00
  can0  531   [4]  00 A0 F0 50
  can0  65F   [8]  00 00 00 00 00 54 52 55
  can0  363   [8]  20 41 56 20 20 20 20 20
  can0  365   [8]  54 56 2F 56 49 44 45 4F
  can0  363   [8]  01 0E 04 65 44 01 0E 03
  can0  658   [8]  70 00 00 0E 40 00 00 00
  can0  363   [8]  01 0E 04 65 44 01 0E 03
  can0  58C   [8]  00 00 2E 00 00 00 00 00
  can0  351   [8]  00 00 00 00 00 00 00 00
  can0  363   [8]  01 0E 04 65 44 01 0E 03
  can0  627   [8]  00 39 39 28 28 3B 3B 28
  can0  359   [8]  20 01 00 00 00 6B 40 88
  can0  363   [8]  01 0E 04 65 44 01 0E 03
  can0  365   [8]  41 0E 04 72 0F 09 04 20
  can0  365   [8]  41 0E 04 72 0F 09 04 20
  can0  365   [8]  41 0E 04 72 0F 09 04 20
  can0  365   [8]  41 0E 04 72 0F 09 04 20
  can0  6C2   [6]  A0 0F 8A FF 4A FF
  can0  60E   [2]  C7 00
  can0  2C3   [1]  07
  can0  42B   [6]  16 01 00 00 00 00
  can0  470   [8]  80 00 01 3A 20 00 00 00
  can0  531   [4]  00 A0 00 A0
  can0  3E1   [8]  20 8B 1D 02 58 00 81 00
  can0  2C1   [5]  00 00 80 00 02
  can0  151   [4]  00 A4 78 DC
  can0  35B   [8]  08 00 00 50 20 18 00 00
  can0  653   [3]  82 02 84
  can0  621   [7]  20 04 24 0B 01 25 23
  can0  436   [6]  0B 01 00 00 00 00
  can0  3C3   [8]  22 00 00 00 80 A0 ED 3D
  can0  555   [8]  E0 00 6A 00 2A 00 00 48
  can0  651   [8]  C0 13 54 8F 36 55 C0 00
  can0  470   [8]  80 00 01 3A 20 00 00 00
  can0  531   [4]  00 A0 10 B0
  can0  658   [8]  70 00 00 0E 40 00 00 00
  can0  58C   [8]  00 00 2E 00 00 00 00 00
  can0  351   [8]  00 00 00 00 00 00 00 00
  can0  363   [8]  01 0E 04 65 44 01 0E 03
  can0  365   [8]  41 0E 04 72 0F 09 04 20
  can0  359   [8]  20 01 00 00 00 6B 40 88
  can0  5B5   [8]  04 0B 00 00 00 00 00 0F
  can0  523   [8]  FA 80 00 00 00 00 00 00
  can0  6C2   [6]  A0 0F 8A FF 4A FF
  can0  527   [8]  10 01 00 40 7D 8A 8A 00
  can0  42B   [6]  16 01 00 00 00 00
  can0  575   [4]  C7 02 00 C0
  can0  2C3   [1]  07
  can0  470   [8]  80 00 01 3A 20 00 00 00
  can0  531   [4]  00 A0 20 80
  can0  3E1   [8]  20 8A 1D 02 58 00 81 00
  can0  575   [4]  C7 02 00 C0
  can0  2C1   [5]  00 00 80 00 02
  can0  151   [4]  00 A4 C8 6C
  can0  436   [6]  0B 01 00 00 00 00
  can0  35B   [8]  08 00 00 50 20 18 00 00
  can0  623   [8]  00 13 55 39 28 03 20 26
  can0  363   [8]  0E 04 65 44 01 0E 03 05
  can0  621   [7]  20 04 24 0B 01 25 23
  can0  3C3   [8]  22 00 00 00 80 40 34 9D
  can0  635   [3]  25 00 23
  can0  555   [8]  E0 00 6A 00 2A 00 00 48
  can0  651   [8]  C0 13 54 8F 36 55 C0 00
  can0  470   [8]  80 00 01 3A 20 00 00 00
  can0  531   [4]  00 A0 30 90
  can0  65F   [8]  01 46 46 41 46 4B 34 41
  can0  658   [8]  70 00 00 0E 40 00 00 00
  can0  58C   [8]  00 00 2E 00 00 00 00 00
  can0  351   [8]  00 00 00 00 00 00 00 00
  can0  365   [8]  41 0E 04 72 0F 09 04 20
  can0  359   [8]  20 01 00 00 00 6B 40 88
  can0  42B   [6]  16 01 00 00 00 00
  can0  5C3   [2]  39 00
  can0  6C2   [6]  A0 0F 8A FF 4A FF
  can0  2C3   [1]  07
  can0  470   [8]  80 00 01 3A 20 00 00 00
  can0  531   [4]  00 A0 40 E0
  can0  3E1   [8]  20 8A 1D 02 58 00 81 00
  can0  436   [6]  0B 01 00 00 00 00
  can0  2C1   [5]  00 00 80 00 02
  can0  151   [4]  00 A4 18 BC
  can0  35B   [8]  08 00 00 50 20 18 00 00
  can0  65D   [8]  54 1B A4 A3 19 DE 6E 14
  can0  363   [8]  0E 04 65 44 01 0E 03 05
  can0  621   [7]  20 04 24 0B 01 25 23
  can0  3C3   [8]  22 00 00 00 80 E0 79 FD
  can0  555   [8]  E0 00 6A 00 2A 00 00 48
  can0  651   [8]  C0 13 54 8F 36 55 C0 00
  can0  470   [8]  80 00 01 3A 20 00 00 00
  can0  531   [4]  00 A0 50 F0
  can0  658   [8]  70 00 00 0E 40 00 00 00
  can0  58C   [8]  00 00 2E 00 00 00 00 00
  can0  351   [8]  00 00 00 00 00 00 00 00
  can0  42B   [6]  16 01 00 00 00 00
  can0  359   [8]  20 01 00 00 00 6B 40 88
  can0  365   [8]  41 0E 04 72 0F 09 04 20
  can0  5B5   [8]  0A 05 00 00 00 00 00 0F
  can0  523   [8]  FA 80 00 00 00 00 00 00
  can0  6C2   [6]  A0 0F 8A FF 4A FF
  can0  527   [8]  10 01 00 40 7D 8A 8B 00
  can0  2C3   [1]  07
  can0  470   [8]  80 00 01 3A 20 00 00 00
  can0  531   [4]  00 A0 60 C0
  can0  575   [4]  C7 02 00 C0
  can0  436   [6]  0B 01 00 00 00 00
  can0  3E1   [8]  20 8B 1D 02 58 00 81 00
  can0  3E3   [8]  19 11 95 00 00 79 00 00
  can0  2C1   [5]  00 00 80 00 02
  can0  151   [4]  00 A4 68 CC
  can0  35B   [8]  08 00 00 50 20 18 00 00
  can0  557   [8]  60 00 00 00 1C 00 00 48
  can0  363   [8]  0E 04 65 44 01 0E 03 05
  can0  621   [7]  20 04 24 0B 01 25 23
  can0  3C3   [8]  22 00 00 00 80 80 A7 5D
  can0  635   [3]  25 00 23
  can0  555   [8]  E0 00 6A 00 2A 00 00 48
  can0  651   [8]  C0 13 54 8F 36 55 C0 00
  can0  470   [8]  80 00 01 3A 20 00 00 00
  can0  42B   [6]  16 01 00 00 00 00
  can0  531   [4]  00 A0 70 D0
  can0  65F   [8]  02 31 30 31 39 36 31 33
  can0  604   [8]  81 00 00 00 00 00 00 00
  can0  658   [8]  70 00 00 0E 40 00 00 00
  can0  58C   [8]  00 00 2E 00 00 00 00 00
  can0  351   [8]  00 00 00 00 00 00 00 00
  can0  661   [8]  83 01 12 37 00 00 00 00
  can0  359   [8]  20 01 00 00 00 6B 40 88
  can0  365   [8]  41 0E 04 72 0F 09 04 20
  can0  6C2   [6]  A0 0F 8A FF 4A FF
  can0  2C3   [1]  07
  can0  436   [6]  0B 01 00 00 00 00
  can0  470   [8]  80 00 01 3A 20 00 00 00
  can0  531   [4]  00 A0 80 20
  can0  571   [6]  89 5F 00 0B 04 00
  can0  3E1   [8]  20 8B 1C 02 58 00 81 00
  can0  2C1   [5]  00 00 80 00 02
  can0  151   [4]  00 A4 B8 1C
  can0  35B   [8]  08 00 00 50 20 18 00 00
  can0  655   [8]  F7 02 60 0F 1E 00 00 DA
  can0  621   [7]  20 04 24 0B 01 25 23
  can0  363   [8]  0E 04 65 44 01 0E 03 05
  can0  3C3   [8]  22 00 00 00 80 20 EA BD
  can0  42B   [6]  16 01 00 00 00 00
  can0  555   [8]  E0 00 6A 00 2A 00 00 48
  can0  651   [8]  C0 13 54 8F 36 55 C0 00
  can0  470   [8]  80 00 01 3A 20 00 00 00
  can0  531   [4]  00 A0 90 30
  can0  658   [8]  70 00 00 0E 40 00 00 00
  can0  58C   [8]  00 00 2E 00 00 00 00 00
  can0  351   [8]  00 00 00 00 00 00 00 00
  can0  627   [8]  00 39 39 28 28 3B 3B 28
  can0  359   [8]  20 01 00 00 00 6B 40 88
  can0  5B5   [8]  00 0F 00 00 00 00 00 0F
  can0  365   [8]  41 0E 04 72 0F 09 04 20
  can0  523   [8]  FA 80 00 00 00 00 00 00
  can0  6C2   [6]  A0 0F 8A FF 4A FF
  can0  527   [8]  10 01 00 40 7D 8A 8B 00
  can0  436   [6]  0B 01 00 00 00 00
  can0  2C3   [1]  07
  can0  470   [8]  80 00 01 3A 20 00 00 00
  can0  531   [4]  00 A0 A0 00
  can0  575   [4]  C7 02 00 C0
  can0  3E1   [8]  20 8B 1D 02 58 00 81 00
  can0  2C1   [5]  00 00 80 00 02
  can0  151   [4]  00 A4 08 AC
  can0  35B   [8]  08 00 00 50 20 18 00 00
  can0  653   [3]  82 02 84
  can0  363   [8]  04 65 44 01 0E 03 05 65
  can0  42B   [6]  16 01 00 00 00 00
  can0  621   [7]  20 04 24 0B 01 25 23
  can0  3C3   [8]  22 00 00 00 80 C0 33 1D
  can0  635   [3]  25 00 23
  can0  555   [8]  E0 00 6A 00 2A 00 00 48
  can0  651   [8]  C0 13 54 8F 36 55 C0 00
  can0  470   [8]  80 00 01 3A 20 00 00 00
  can0  531   [4]  00 A0 B0 10
  can0  65F   [8]  00 00 00 00 00 54 52 55
  can0  658   [8]  70 00 00 0E 40 00 00 00
  can0  58C   [8]  00 00 2E 00 00 00 00 00
  can0  351   [8]  00 00 00 00 00 00 00 00
  can0  359   [8]  20 01 00 00 00 6B 40 88
  can0  365   [8]  41 0E 04 72 0F 09 04 20
  can0  436   [6]  0B 01 00 00 00 00
  can0  6C2   [6]  A0 0F 8A FF 4A FF
  can0  2C3   [1]  07
  can0  470   [8]  80 00 01 3A 20 00 00 00
  can0  531   [4]  00 A0 C0 60
  can0  3E1   [8]  20 8B 1D 02 58 00 81 00
  can0  2C1   [5]  00 00 80 00 02
  can0  42B   [6]  16 01 00 00 00 00
  can0  151   [4]  00 A4 58 FC
  can0  35B   [8]  08 00 00 50 20 18 00 00
  can0  363   [8]  04 65 44 01 0E 03 05 65
  can0  621   [7]  20 04 24 0B 01 25 23
  can0  3C3   [8]  22 00 00 00 80 60 7E 7D
  can0  555   [8]  E0 00 6A 00 2A 00 00 48
  can0  651   [8]  C0 13 54 8F 36 55 C0 00
  can0  470   [8]  80 00 01 3A 20 00 00 00
  can0  531   [4]  00 A0 D0 70
  can0  658   [8]  70 00 00 0E 40 00 00 00
  can0  58C   [8]  00 00 2E 00 00 00 00 00
  can0  351   [8]  00 00 00 00 00 00 00 00
  can0  359   [8]  20 01 00 00 00 6B 40 88
  can0  436   [6]  0B 01 00 00 00 00
  can0  5B5   [8]  06 09 00 00 00 00 00 0F
  can0  365   [8]  41 0E 04 72 0F 09 04 20
  can0  5C3   [2]  39 00
  can0  523   [8]  FA 80 00 00 00 00 00 00
  can0  6C2   [6]  A0 0F 8A FF 4A FF
  can0  527   [8]  10 01 00 40 7D 8A 8B 00
  can0  6DB   [4]  30 5B 54 01
  can0  2C3   [1]  07
  can0  470   [8]  80 00 01 3A 20 00 00 00
  can0  531   [4]  00 A0 E0 40
  can0  3E1   [8]  20 8B 1D 02 58 00 81 00
  can0  575   [4]  C7 02 00 C0
  can0  42B   [6]  16 01 00 00 00 00
  can0  2C1   [5]  00 00 80 00 02
  can0  151   [4]  00 A4 A8 0C
  can0  35B   [8]  08 00 00 50 20 18 00 00
  can0  621   [7]  20 04 24 0B 01 25 23
  can0  363   [8]  04 65 44 01 0E 03 05 65
  can0  3C3   [8]  22 00 00 00 80 00 A0 DD
  can0  635   [3]  25 00 23
  can0  555   [8]  E0 00 6A 00 2A 00 00 48
  can0  651   [8]  C0 13 54 8F 36 55 C0 00
  can0  470   [8]  80 00 01 3A 20 00 00 00
  can0  531   [4]  00 A0 F0 50
  can0  65F   [8]  01 46 46 41 46 4B 34 41
  can0  658   [8]  70 00 00 0E 40 00 00 00
  can0  363   [8]  20 41 56 20 20 20 20 20
  can0  365   [8]  54 56 2F 56 49 44 45 4F
  can0  363   [8]  04 65 44 01 0E 03 05 65
  can0  363   [8]  04 65 44 01 0E 03 05 65
  can0  363   [8]  04 65 44 01 0E 03 05 65
  can0  365   [8]  41 0E 04 72 0F 09 04 20
  can0  365   [8]  41 0E 04 72 0F 09 04 20
  can0  365   [8]  41 0E 04 72 0F 09 04 20
  can0  363   [8]  04 65 44 01 0E 03 05 65
  can0  365   [8]  41 0E 04 72 0F 09 04 20
  can0  436   [6]  0B 01 00 00 00 00
  can0  58C   [8]  00 00 2E 00 00 00 00 00
  can0  351   [8]  00 00 00 00 00 00 00 00
  can0  359   [8]  20 01 00 00 00 6B 40 88
  can0  6C2   [1]  A8
  can0  2C3   [1]  07
  can0  470   [8]  80 00 01 3A 20 00 00 00
  can0  3E1   [8]  20 8B 1D 02 58 00 81 00
  can0  531   [4]  00 A0 00 A0
  can0  2C1   [5]  00 00 80 00 02
  can0  42B   [6]  16 01 00 00 00 00
  can0  151   [4]  00 A4 F8 5C
  can0  35B   [8]  08 00 00 50 20 18 00 00
  can0  557   [8]  60 00 00 00 1C 00 00 48
  can0  621   [7]  20 04 24 0B 01 25 23
  can0  3C3   [8]  22 00 00 00 80 A0 ED 3D
  can0  555   [8]  E0 00 6A 00 2A 00 00 48
  can0  651   [8]  C0 13 54 8F 36 55 C0 00
  can0  470   [8]  80 00 01 3A 20 00 00 00
  can0  531   [4]  00 A0 10 B0
  can0  658   [8]  70 00 00 0E 40 00 00 00
  can0  58C   [8]  00 00 2E 00 00 00 00 00
  can0  351   [8]  00 00 00 00 00 00 00 00
  can0  363   [8]  04 65 44 01 0E 03 05 65
  can0  6C1   [1]  A3
  can0  359   [8]  20 01 00 00 00 6B 40 88
  can0  365   [8]  41 0E 04 72 0F 09 04 20
  can0  436   [6]  0B 01 00 00 00 00
  can0  5B5   [8]  0C 03 00 00 00 00 00 0F
  can0  6C0   [6]  A1 0F 8A FF 4A FF
  can0  523   [8]  FA 80 00 00 00 00 00 00
  can0  527   [8]  10 01 00 40 7D 8A 8A 00
  can0  6C2   [6]  A0 0F 8A FF 4A FF
  can0  575   [4]  C7 02 00 80
  can0  2C3   [1]  07
  can0  470   [8]  80 00 01 3A 20 00 00 00
  can0  531   [4]  00 A0 20 80
  can0  3E1   [8]  20 8A 1D 02 58 00 81 00
  can0  571   [6]  8A 5F 00 0B 04 00
  can0  42B   [6]  16 01 00 00 00 00
  can0  575   [4]  C7 02 00 80
  can0  2C1   [5]  00 00 80 00 02
  can0  151   [4]  00 A4 48 EC
  can0  35B   [8]  08 00 00 50 20 18 00 00
  can0  655   [8]  F7 02 60 0F 1E 00 00 DA
  can0  363   [8]  65 44 01 0E 03 05 65 53
  can0  621   [7]  20 04 24 0B 01 25 23
  can0  3C3   [8]  22 00 00 00 80 40 34 9D
  can0  635   [3]  25 00 23
  can0  555   [8]  E0 00 6A 00 2A 00 00 48
  can0  651   [8]  C0 13 54 8F 36 55 C0 00
  can0  470   [8]  80 00 01 3A 20 00 00 00
  can0  65F   [8]  02 31 30 31 39 36 31 33
  can0  658   [8]  70 00 00 0E 40 00 00 00
  can0  531   [4]  00 A0 30 90
  can0  436   [6]  0B 01 00 00 00 00
  can0  58C   [8]  00 00 2E 00 00 00 00 00
  can0  351   [8]  00 00 00 00 00 00 00 00
  can0  627   [8]  00 39 39 28 28 3B 3B 28
  can0  359   [8]  20 01 00 00 00 6B 40 88
  can0  365   [8]  41 0E 04 72 0F 09 04 20
  can0  60E   [2]  C7 00
  can0  6C2   [6]  A0 0F 8A FF 4A FF
  can0  2C3   [1]  07
  can0  3E1   [8]  20 8A 1D 02 58 00 81 00
  can0  42B   [6]  16 01 00 00 00 00
  can0  470   [8]  80 00 01 3A 20 00 00 00
  can0  531   [4]  00 A0 40 E0
  can0  2C1   [5]  00 00 80 00 02
  can0  151   [4]  00 A4 98 3C
  can0  35B   [8]  08 00 00 50 20 18 00 00
  can0  653   [3]  82 02 84
  can0  621   [7]  20 04 24 0B 01 25 23
  can0  363   [8]  65 44 01 0E 03 05 65 53
  can0  3C3   [8]  22 00 00 00 80 E0 79 FD
  can0  555   [8]  E0 00 6A 00 2A 00 00 48
  can0  436   [6]  0B 01 00 00 00 00
  can0  651   [8]  C0 13 54 8F 36 55 C0 00
  can0  470   [8]  80 00 01 3A 20 00 00 00
  can0  531   [4]  00 A0 50 F0
  can0  658   [8]  70 00 00 0E 40 00 00 00
  can0  58C   [8]  00 00 2E 00 00 00 00 00
  can0  351   [8]  00 00 00 00 00 00 00 00
  can0  359   [8]  20 01 00 00 00 6B 40 88
  can0  365   [8]  41 0E 04 72 0F 09 04 20
  can0  5B5   [8]  02 0D 00 00 00 00 00 0F
  can0  523   [8]  FA 80 00 00 00 00 00 00
  can0  527   [8]  10 01 00 40 7D 8A 8B 00
  can0  6C2   [6]  A0 0F 8A FF 4A FF
  can0  2C3   [1]  07
  can0  42B   [6]  16 01 00 00 00 00
  can0  3E1   [8]  20 8B 1D 02 58 00 81 00
  can0  470   [8]  80 00 01 3A 20 00 00 00
  can0  531   [4]  00 A0 60 C0
  can0  575   [4]  C7 02 00 80
  can0  3E3   [8]  19 11 95 00 00 79 00 00
  can0  2C1   [5]  00 00 80 00 02
  can0  151   [4]  00 A4 E8 4C
  can0  35B   [8]  08 00 00 50 20 18 00 00
  can0  623   [8]  00 13 55 40 28 03 20 26
  can0  621   [7]  20 04 24 0B 01 25 23
  can0  436   [6]  0B 01 00 00 00 00
  can0  363   [8]  65 44 01 0E 03 05 65 53
  can0  3C3   [8]  22 00 00 00 80 80 A7 5D
  can0  635   [3]  25 00 23
  can0  555   [8]  E0 00 6A 00 2A 00 00 48
  can0  651   [8]  C0 13 54 8F 36 55 C0 00
  can0  470   [8]  80 00 01 3A 20 00 00 00
  can0  531   [4]  00 A0 70 D0
  can0  65F   [8]  00 00 00 00 00 54 52 55
  can0  658   [8]  70 00 00 0E 40 00 00 00
  can0  58C   [8]  00 00 2E 00 00 00 00 00
  can0  351   [8]  00 00 00 00 00 00 00 00
  can0  359   [8]  20 01 00 00 00 6B 40 88
  can0  365   [8]  41 0E 04 72 0F 09 04 20
  can0  5C3   [2]  39 00
  can0  42B   [6]  16 01 00 00 00 00
  can0  6C2   [6]  A0 0F 8A FF 4A FF
  can0  2C3   [1]  07
  can0  3E1   [8]  20 8B 1D 02 58 00 81 00
  can0  470   [8]  80 00 01 3A 20 00 00 00
  can0  531   [4]  00 A0 80 20
  can0  2C1   [5]  00 00 80 00 02
  can0  151   [4]  00 A4 38 9C
  can0  436   [6]  0B 01 00 00 00 00
  can0  35B   [8]  08 00 00 50 20 18 00 00
  can0  65D   [8]  54 1B A4 A3 19 DE EE 14
  can0  621   [7]  20 04 24 0B 01 25 23
  can0  3C3   [8]  22 00 00 00 80 20 EA BD
  can0  363   [8]  65 44 01 0E 03 05 65 53
  can0  555   [8]  E0 00 6A 00 2A 00 00 48
  can0  651   [8]  C0 13 54 8F 36 55 C0 00
  can0  470   [8]  80 00 01 3A 20 00 00 00
  can0  531   [4]  00 A0 90 30
  can0  658   [8]  70 00 00 0E 40 00 00 00
  can0  58C   [8]  00 00 2E 00 00 00 00 00
  can0  351   [8]  00 00 00 00 00 00 00 00
  can0  359   [8]  20 01 00 00 00 6B 40 88
  can0  5B5   [8]  08 07 00 00 00 00 00 0F
  can0  365   [8]  41 0E 04 72 0F 09 04 20
  can0  42B   [6]  16 01 00 00 00 00
  can0  523   [8]  FA 80 00 00 00 00 00 00
  can0  527   [8]  10 01 00 40 7D 8A 8B 00
  can0  6C2   [6]  A0 0F 8A FF 4A FF
  can0  2C3   [1]  07
  can0  3E1   [8]  20 8B 1D 02 58 00 81 00
  can0  470   [8]  80 00 01 3A 20 00 00 00
  can0  531   [4]  00 A0 A0 00
  can0  575   [4]  C7 02 00 80
  can0  436   [6]  0B 01 00 00 00 00
  can0  2C1   [5]  00 00 80 00 02
  can0  151   [4]  00 A4 88 2C
  can0  35B   [8]  08 00 00 50 20 18 00 00
  can0  557   [8]  60 00 00 00 1C 00 00 48
  can0  621   [7]  20 04 24 0B 01 25 23
  can0  363   [8]  44 01 0E 03 05 65 53 08
  can0  3C3   [8]  22 00 00 00 80 C0 33 1D
  can0  635   [3]  25 00 23
  can0  555   [8]  E0 00 6A 00 2A 00 00 48
  can0  651   [8]  C0 13 54 8F 36 55 C0 00
  can0  470   [8]  80 00 01 3A 20 00 00 00
  can0  531   [4]  00 A0 B0 10
  can0  65F   [8]  01 46 46 41 46 4B 34 41
  can0  658   [8]  70 00 00 0E 40 00 00 00
  can0  604   [8]  81 00 00 00 00 00 00 00
  can0  58C   [8]  00 00 2E 00 00 00 00 00
  can0  351   [8]  00 00 00 00 00 00 00 00
  can0  661   [8]  83 01 12 37 00 00 00 00
  can0  42B   [6]  16 01 00 00 00 00
  can0  359   [8]  20 01 00 00 00 6B 40 88
  can0  365   [8]  41 0E 04 72 0F 09 04 20
  can0  6C2   [6]  A0 0F 8A FF 4A FF
  can0  2C3   [1]  07
  can0  3E1   [8]  20 8B 1D 02 58 00 81 00
  can0  470   [8]  80 00 01 3A 20 00 00 00
  can0  531   [4]  00 A0 C0 60
  can0  571   [6]  89 5F 00 0B 04 00
  can0  436   [6]  0B 01 00 00 00 00
  can0  2C1   [5]  00 00 80 00 02
  can0  151   [4]  00 A4 D8 7C
  can0  35B   [8]  08 00 00 50 20 18 00 00
  can0  655   [8]  F7 02 60 0F 1E 00 00 DA
  can0  621   [7]  20 04 24 0B 01 25 23
  can0  363   [8]  44 01 0E 03 05 65 53 08
  can0  3C3   [8]  22 00 00 00 80 60 7E 7D
  can0  555   [8]  E0 00 6A 00 2A 00 00 48
  can0  651   [8]  C0 13 54 8F 36 55 C0 00
  can0  42B   [6]  16 01 00 00 00 00
  can0  470   [8]  80 00 01 3A 20 00 00 00
  can0  658   [8]  70 00 00 0E 40 00 00 00
  can0  531   [4]  00 A0 D0 70
  can0  58C   [8]  00 00 2E 00 00 00 00 00
  can0  351   [8]  00 00 00 00 00 00 00 00
  can0  627   [8]  00 39 39 28 28 3B 3B 28
  can0  359   [8]  20 01 00 00 00 6B 40 88
  can0  5B5   [8]  0E 01 00 00 00 00 00 0F
  can0  365   [8]  41 0E 04 72 0F 09 04 20
  can0  523   [8]  FA 80 00 00 00 00 00 00
  can0  527   [8]  10 01 00 40 7D 8A 8B 00
  can0  6C2   [6]  A0 0F 8A FF 4A FF
  can0  2C3   [1]  07
  can0  436   [6]  0B 01 00 00 00 00
  can0  3E1   [8]  20 8B 1D 02 58 00 81 00
  can0  470   [8]  80 00 01 3A 20 00 00 00
  can0  531   [4]  00 A0 E0 40
  can0  575   [4]  C7 02 00 80
  can0  2C1   [5]  00 00 80 00 02
  can0  151   [4]  00 A4 28 8C
  can0  35B   [8]  08 00 00 50 20 18 00 00
  can0  653   [3]  82 02 84
  can0  621   [7]  20 04 24 0B 01 25 23
  can0  3C3   [8]  22 00 00 00 80 00 A0 DD
  can0  363   [8]  44 01 0E 03 05 65 53 08
  can0  42B   [6]  16 01 00 00 00 00
  can0  635   [3]  25 00 23
  can0  555   [8]  E0 00 6A 00 2A 00 00 48
  can0  651   [8]  C0 13 54 8F 36 55 C0 00
  can0  470   [8]  80 00 01 3A 20 00 00 00
  can0  531   [4]  00 A0 F0 50
  can0  65F   [8]  02 31 30 31 39 36 31 33
  can0  658   [8]  70 00 00 0E 40 00 00 00
  can0  58C   [8]  00 00 2E 00 00 00 00 00
  can0  363   [8]  20 41 56 20 20 20 20 20
  can0  351   [8]  00 00 00 00 00 00 00 00
  can0  363   [8]  44 01 0E 03 05 65 53 08
  can0  365   [8]  54 56 2F 56 49 44 45 4F
  can0  363   [8]  44 01 0E 03 05 65 53 08
  can0  359   [8]  20 01 00 00 00 6B 40 88
  can0  363   [8]  44 01 0E 03 05 65 53 08
  can0  365   [8]  41 0E 04 72 0F 09 04 20
  can0  365   [8]  41 0E 04 72 0F 09 04 20
  can0  365   [8]  41 0E 04 72 0F 09 04 20
  can0  365   [8]  41 0E 04 72 0F 09 04 20
  can0  363   [8]  44 01 0E 03 05 65 53 08
  can0  436   [6]  0B 01 00 00 00 00
  can0  6C2   [6]  A0 0F 8A FF 4A FF
  can0  2C3   [1]  07
  can0  3E1   [8]  20 8B 1E 02 58 00 81 00
  can0  470   [8]  80 00 01 3A 20 00 00 00
  can0  531   [4]  00 A0 00 A0
  can0  2C1   [5]  00 00 80 00 02
  can0  151   [4]  00 A4 78 DC
  can0  35B   [8]  08 00 00 50 20 18 00 00
  can0  42B   [6]  16 01 00 00 00 00
  can0  621   [7]  20 04 24 0B 01 25 23
  can0  3C3   [8]  22 00 00 00 80 A0 ED 3D
  can0  555   [8]  E0 00 6A 00 2A 00 00 48
  can0  651   [8]  C0 13 54 8F 36 55 C0 00
  can0  470   [8]  80 00 01 3A 20 00 00 00
  can0  531   [4]  00 A0 10 B0
  can0  658   [8]  70 00 00 0E 40 00 00 00
  can0  58C   [8]  00 00 2E 00 00 00 00 00
  can0  351   [8]  00 00 00 00 00 00 00 00
  can0  359   [8]  20 01 00 00 00 6B 40 88
  can0  365   [8]  41 0E 04 72 0F 09 04 20
  can0  363   [8]  44 01 0E 03 05 65 53 08
  can0  5B5   [8]  04 0B 00 00 00 00 00 0F
  can0  5C3   [2]  39 00
  can0  523   [8]  FA 80 00 00 00 00 00 00
  can0  6DB   [4]  30 61 54 01
  can0  436   [6]  0B 01 00 00 00 00
  can0  527   [8]  10 01 00 40 7D 8A 8B 00
  can0  6C2   [6]  A0 0F 8A FF 4A FF
  can0  575   [4]  C7 02 00 C0
  can0  2C3   [1]  07
  can0  3E1   [8]  20 8B 1D 02 58 00 81 00
  can0  470   [8]  80 00 01 3A 20 00 00 00
  can0  531   [4]  00 A0 20 80
  can0  575   [4]  C7 02 00 C0
  can0  2C1   [5]  00 00 80 00 02
  can0  42B   [6]  16 01 00 00 00 00
  can0  151   [4]  00 A4 C8 6C
  can0  35B   [8]  08 00 00 50 20 18 00 00
  can0  621   [7]  20 04 24 0B 01 25 23
  can0  363   [8]  01 0E 03 05 65 53 08 75
  can0  3C3   [8]  22 00 00 00 80 40 34 9D
  can0  635   [3]  25 00 23
  can0  555   [8]  E0 00 6A 00 2A 00 00 48
  can0  651   [8]  C0 13 54 8F 36 55 C0 00
  can0  470   [8]  80 00 01 3A 20 00 00 00
  can0  531   [4]  00 A0 30 90
  can0  65F   [8]  00 00 00 00 00 54 52 55
  can0  658   [8]  70 00 00 0E 40 00 00 00
  can0  58C   [8]  00 00 2E 00 00 00 00 00
  can0  351   [8]  00 00 00 00 00 00 00 00
  can0  359   [8]  20 01 00 00 00 6B 40 88
  can0  436   [6]  0B 01 00 00 00 00
  can0  365   [8]  41 0E 04 72 0F 09 04 20
  can0  6C2   [6]  A0 0F 8A FF 4A FF
  can0  2C3   [1]  07
  can0  3E1   [8]  20 8B 1D 02 58 00 81 00
  can0  470   [8]  80 00 01 3A 20 00 00 00
  can0  531   [4]  00 A0 40 E0
  can0  42B   [6]  16 01 00 00 00 00
  can0  2C1   [5]  00 00 80 00 02
  can0  151   [4]  00 A4 18 BC
  can0  35B   [8]  08 00 00 50 20 18 00 00
  can0  557   [8]  60 00 00 00 1C 00 00 48
  can0  621   [7]  20 04 24 0B 01 25 23
  can0  363   [8]  01 0E 03 05 65 53 08 75
  can0  3C3   [8]  22 00 00 00 80 E0 79 FD
  can0  555   [8]  E0 00 6A 00 2A 00 00 48
  can0  651   [8]  C0 13 54 8F 36 55 C0 00
  can0  470   [8]  80 00 01 3A 20 00 00 00
  can0  531   [4]  00 A0 50 F0
  can0  658   [8]  70 00 00 0E 40 00 00 00
  can0  58C   [8]  00 00 2E 00 00 00 00 00
  can0  436   [6]  0B 01 00 00 00 00
  can0  351   [8]  00 00 00 00 00 00 00 00
  can0  6C1   [1]  A3
  can0  359   [8]  20 01 00 00 00 6B 40 88
  can0  5B5   [8]  0A 05 00 00 00 00 00 0F
  can0  365   [8]  41 0E 04 72 0F 09 04 20
  can0  6C0   [6]  A1 0F 8A FF 4A FF
  can0  523   [8]  FA 80 00 00 00 00 00 00
  can0  527   [8]  10 01 00 40 7D 8A 8B 00
  can0  6C2   [6]  A0 0F 8A FF 4A FF
  can0  2C3   [1]  07
  can0  3E1   [8]  20 8B 1D 02 58 00 81 00
  can0  42B   [6]  16 01 00 00 00 00
  can0  470   [8]  80 00 01 3A 20 00 00 00
  can0  531   [4]  00 A0 60 C0
  can0  571   [6]  8A 5F 00 0B 04 00
  can0  3E3   [8]  19 11 95 00 00 79 00 00
  can0  575   [4]  C7 02 00 C0
  can0  2C1   [5]  00 00 80 00 02
  can0  151   [4]  00 A4 68 CC
  can0  35B   [8]  08 00 00 50 20 18 00 00
  can0  655   [8]  F7 02 60 0F 1E 00 00 DA
  can0  621   [7]  20 04 24 0B 01 25 23
  can0  3C3   [8]  22 00 00 00 80 80 A7 5D
  can0  363   [8]  01 0E 03 05 65 53 08 75
  can0  635   [3]  25 00 23
  can0  555   [8]  E0 00 6A 00 2A 00 00 48
  can0  436   [6]  0B 01 00 00 00 00
  can0  651   [8]  C0 13 54 8F 36 55 C0 00
  can0  470   [8]  80 00 01 3A 20 00 00 00
  can0  531   [4]  00 A0 70 D0
  can0  65F   [8]  01 46 46 41 46 4B 34 41
  can0  658   [8]  70 00 00 0E 40 00 00 00
  can0  58C   [8]  00 00 2E 00 00 00 00 00
  can0  351   [8]  00 00 00 00 00 00 00 00
  can0  627   [8]  00 39 39 28 28 3B 3B 28
  can0  359   [8]  20 01 00 00 00 6B 40 88
  can0  365   [8]  41 0E 04 72 0F 09 04 20
  can0  60E   [2]  C7 00
  can0  6C2   [1]  A8
  can0  2C3   [1]  07
  can0  42B   [6]  16 01 00 00 00 00
  can0  3E1   [8]  20 8B 1D 02 58 00 81 00
  can0  470   [8]  80 00 01 3A 20 00 00 00
  can0  531   [4]  00 A0 80 20
  can0  2C1   [5]  00 00 80 00 02
  can0  151   [4]  00 A4 B8 1C
  can0  35B   [8]  08 00 00 50 20 18 00 00
  can0  653   [3]  82 02 84
  can0  621   [7]  20 04 24 0B 01 25 23
  can0  3C3   [8]  22 00 00 00 80 20 EA BD
  can0  436   [6]  0B 01 00 00 00 00
  can0  363   [8]  01 0E 03 05 65 53 08 75
  can0  555   [8]  E0 00 6A 00 2A 00 00 48
  can0  651   [8]  C0 13 54 8F 36 55 C0 00
  can0  470   [8]  80 00 01 3A 20 00 00 00
  can0  531   [4]  00 A0 90 30
  can0  658   [8]  70 00 00 0E 40 00 00 00
  can0  58C   [8]  00 00 2E 00 00 00 00 00
  can0  351   [8]  00 00 00 00 00 00 00 00
  can0  359   [8]  20 01 00 00 00 6B 40 88
  can0  5B5   [8]  00 0F 00 00 00 00 00 0F
  can0  365   [8]  41 0E 04 72 0F 09 04 20
  can0  523   [8]  FA 80 00 00 00 00 00 00
  can0  527   [8]  10 01 00 40 7D 8A 8B 00
  can0  42B   [6]  16 01 00 00 00 00
  can0  2C3   [1]  07
  can0  3E1   [8]  20 8B 1D 02 58 00 81 00
  can0  6C2   [6]  A0 0F 8A FF 4A FF
  can0  470   [8]  80 00 01 3A 20 00 00 00
  can0  531   [4]  00 A0 A0 00
  can0  575   [4]  C7 02 00 C0
  can0  2C1   [5]  00 00 80 00 02
  can0  151   [4]  00 A4 08 AC
  can0  35B   [8]  08 00 00 50 20 18 00 00
  can0  436   [6]  0B 01 00 00 00 00
  can0  623   [8]  00 13 55 41 28 03 20 26
  can0  621   [7]  20 04 24 0B 01 25 23
  can0  363   [8]  0E 03 05 65 53 08 75 74
  can0  3C3   [8]  22 00 00 00 80 C0 33 1D
  can0  635   [3]  25 00 23
  can0  555   [8]  E0 00 6A 00 2A 00 00 48
  can0  651   [8]  C0 13 54 8F 36 55 C0 00
  can0  470   [8]  80 00 01 3A 20 00 00 00
  can0  531   [4]  00 A0 B0 10
  can0  65F   [8]  02 31 30 31 39 36 31 33
  can0  658   [8]  70 00 00 0E 40 00 00 00
  can0  58C   [8]  00 00 2E 00 00 00 00 00
  can0  351   [8]  00 00 00 00 00 00 00 00
  can0  359   [8]  20 01 00 00 00 6B 40 88
  can0  42B   [6]  16 01 00 00 00 00
  can0  5C3   [2]  39 00
  can0  365   [8]  41 0E 04 72 0F 09 04 20
  can0  2C3   [1]  07
  can0  3E1   [8]  20 8B 1D 02 58 00 81 00
  can0  6C2   [6]  A0 0F 8A FF 4A FF
  can0  470   [8]  80 00 01 3A 20 00 00 00
  can0  531   [4]  00 A0 C0 60
  can0  436   [6]  0B 01 00 00 00 00
  can0  2C1   [5]  00 00 80 00 02
  can0  151   [4]  00 A4 58 FC
  can0  35B   [8]  08 00 00 50 20 18 00 00
  can0  65D   [8]  54 1B A4 A3 19 DE 6E 15
  can0  621   [7]  20 04 24 0B 01 25 23
  can0  3C3   [8]  22 00 00 00 80 60 7E 7D
  can0  363   [8]  0E 03 05 65 53 08 75 74
  can0  555   [8]  E0 00 6A 00 2A 00 00 48
  can0  651   [8]  C0 13 54 8F 36 55 C0 00
  can0  470   [8]  80 00 01 3A 20 00 00 00
  can0  531   [4]  00 A0 D0 70
  can0  658   [8]  70 00 00 0E 40 00 00 00
  can0  58C   [8]  00 00 2E 00 00 00 00 00
  can0  351   [8]  00 00 00 00 00 00 00 00
  can0  42B   [6]  16 01 00 00 00 00
  can0  359   [8]  20 01 00 00 00 6B 40 88
  can0  5B5   [8]  06 09 00 00 00 00 00 0F
  can0  523   [8]  FA 80 00 00 00 00 00 00
  can0  365   [8]  41 0E 04 72 0F 09 04 20
  can0  527   [8]  10 01 00 40 7D 8A 8B 00
  can0  2C3   [1]  07
  can0  3E1   [8]  20 8B 1D 02 58 00 81 00
  can0  6C2   [6]  A0 0F 8A FF 4A FF
  can0  470   [8]  80 00 01 3A 20 00 00 00
  can0  531   [4]  00 A0 E0 40
  can0  575   [4]  C7 02 00 C0
  can0  436   [6]  0B 01 00 00 00 00
  can0  2C1   [5]  00 00 80 00 02
  can0  151   [4]  00 A4 A8 0C
  can0  35B   [8]  08 00 00 50 20 18 00 00
  can0  557   [8]  60 00 00 00 1C 00 00 48
  can0  621   [7]  20 04 24 0B 01 25 23
  can0  3C3   [8]  22 00 00 00 80 00 A0 DD
  can0  363   [8]  0E 03 05 65 53 08 75 74
  can0  635   [3]  25 00 23
  can0  555   [8]  E0 00 6A 00 2A 00 00 48
  can0  651   [8]  C0 13 54 8F 36 55 C0 00
  can0  470   [8]  80 00 01 3A 20 00 00 00
  can0  531   [4]  00 A0 F0 50
  can0  42B   [6]  16 01 00 00 00 00
  can0  65F   [8]  00 00 00 00 00 54 52 55
  can0  658   [8]  70 00 00 0E 40 00 00 00
  can0  58C   [8]  00 00 2E 00 00 00 00 00
  can0  351   [8]  00 00 00 00 00 00 00 00
  can0  363   [8]  20 41 56 20 20 20 20 20
  can0  365   [8]  54 56 2F 56 49 44 45 4F
  can0  363   [8]  0E 03 05 65 53 08 75 74
  can0  604   [8]  81 00 00 00 00 00 00 00
  can0  359   [8]  20 01 00 00 00 6B 40 88
  can0  363   [8]  0E 03 05 65 53 08 75 74
  can0  661   [8]  83 01 12 37 00 00 00 00
  can0  363   [8]  0E 03 05 65 53 08 75 74
  can0  365   [8]  41 0E 04 72 0F 09 04 20
  can0  365   [8]  41 0E 04 72 0F 09 04 20
  can0  365   [8]  41 0E 04 72 0F 09 04 20
  can0  363   [8]  0E 03 05 65 53 08 75 74
  can0  365   [8]  41 0E 04 72 0F 09 04 20
  can0  2C3   [1]  07
  can0  3E1   [8]  20 8B 1D 02 58 00 81 00
  can0  436   [6]  0B 01 00 00 00 00
  can0  6C2   [6]  A0 0F 8A FF 4A FF
  can0  470   [8]  80 00 01 3A 20 00 00 00
  can0  531   [4]  00 A0 00 A0
  can0  571   [6]  89 5F 00 0B 04 00
  can0  2C1   [5]  00 00 80 00 02
  can0  151   [4]  00 A4 F8 5C
  can0  35B   [8]  08 00 00 50 20 18 00 00
  can0  655   [8]  F7 02 60 0F 1E 00 00 DA
  can0  621   [7]  20 04 24 0B 01 25 23
  can0  3C3   [8]  22 00 00 00 80 A0 ED 3D
  can0  42B   [6]  16 01 00 00 00 00
  can0  555   [8]  E0 00 6A 00 2A 00 00 48
  can0  651   [8]  C0 13 54 8F 36 55 C0 00
  can0  470   [8]  80 00 01 3A 20 00 00 00
  can0  531   [4]  00 A0 10 B0
  can0  658   [8]  70 00 00 0E 40 00 00 00
  can0  58C   [8]  00 00 2E 00 00 00 00 00
  can0  351   [8]  00 00 00 00 00 00 00 00
  can0  627   [8]  00 39 39 28 28 3B 3B 28
  can0  359   [8]  20 01 00 00 00 6B 40 88
  can0  5B5   [8]  0C 03 00 00 00 00 00 0F
  can0  363   [8]  0E 03 05 65 53 08 75 74
  can0  365   [8]  41 0E 04 72 0F 09 04 20
  can0  523   [8]  FA 80 00 00 00 00 00 00
  can0  527   [8]  10 01 00 40 7D 8A 8B 00
  can0  436   [6]  0B 01 00 00 00 00
  can0  575   [4]  C7 02 00 80
  can0  2C3   [1]  07
  can0  3E1   [8]  20 8B 1D 02 58 00 81 00
  can0  6C2   [6]  A0 0F 8A FF 4A FF
  can0  470   [8]  80 00 01 3A 20 00 00 00
  can0  531   [4]  00 A0 20 80
  can0  575   [4]  C7 02 00 80
  can0  2C1   [5]  00 00 80 00 02
  can0  151   [4]  00 A4 48 EC
  can0  35B   [8]  08 00 00 50 20 18 00 00
  can0  653   [3]  82 02 84
  can0  42B   [6]  16 01 00 00 00 00
  can0  621   [7]  20 04 24 0B 01 25 23
  can0  3C3   [8]  22 00 00 00 80 40 34 9D
  can0  363   [8]  03 05 65 53 08 75 74 65
  can0  635   [3]  25 00 23
  can0  555   [8]  E0 00 6A 00 2A 00 00 48
  can0  651   [8]  C0 13 54 8F 36 55 C0 00
  can0  470   [8]  80 00 01 3A 20 00 00 00
  can0  531   [4]  00 A0 30 90
  can0  65F   [8]  01 46 46 41 46 4B 34 41
  can0  658   [8]  70 00 00 0E 40 00 00 00
  can0  58C   [8]  00 00 2E 00 00 00 00 00
  can0  351   [8]  00 00 00 00 00 00 00 00
  can0  359   [8]  20 01 00 00 00 6B 40 88
  can0  365   [8]  41 0E 04 72 0F 09 04 20
  can0  436   [6]  0B 01 00 00 00 00
  can0  3E1   [8]  20 8B 1D 02 58 00 81 00
  can0  2C3   [1]  07
  can0  6C2   [6]  A0 0F 8A FF 4A FF
  can0  470   [8]  80 00 01 3A 20 00 00 00
  can0  531   [4]  00 A0 40 E0
  can0  42B   [6]  16 01 00 00 00 00
  can0  2C1   [5]  00 00 80 00 02
  can0  151   [4]  00 A4 98 3C
  can0  35B   [8]  08 00 00 50 20 18 00 00
  can0  621   [7]  20 04 24 0B 01 25 23
  can0  3C3   [8]  22 00 00 00 80 E0 79 FD
  can0  363   [8]  03 05 65 53 08 75 74 65
  can0  555   [8]  E0 00 6A 00 2A 00 00 48
  can0  651   [8]  C0 13 54 8F 36 55 C0 00
  can0  470   [8]  80 00 01 3A 20 00 00 00
  can0  531   [4]  00 A0 50 F0
  can0  658   [8]  70 00 00 0E 40 00 00 00
  can0  58C   [8]  00 00 2E 00 00 00 00 00
  can0  351   [8]  00 00 00 00 00 00 00 00
  can0  359   [8]  20 01 00 00 00 6B 40 88
  can0  5B5   [8]  02 0D 00 00 00 00 00 0F
  can0  436   [6]  0B 01 00 00 00 00
  can0  6DB   [8]  30 42 03 00 01 00 03 00
  can0  365   [8]  41 0E 04 72 0F 09 04 20
  can0  5C3   [2]  39 00
  can0  523   [8]  FA 80 00 00 00 00 00 00
  can0  527   [8]  10 01 00 40 7D 8A 8B 00
  can0  3E1   [8]  20 8B 1D 02 58 00 81 00
  can0  2C3   [1]  07
  can0  6C2   [6]  A0 0F 8A FF 4A FF
  can0  3E3   [8]  19 11 95 00 00 79 00 00
  can0  470   [8]  80 00 01 3A 20 00 00 00
  can0  531   [4]  00 A0 60 C0
  can0  575   [4]  C7 02 00 80
  can0  42B   [6]  16 01 00 00 00 00
  can0  2C1   [5]  00 00 80 00 02
  can0  151   [4]  00 A4 E8 4C
  can0  35B   [8]  08 00 00 50 20 18 00 00
  can0  621   [7]  20 04 24 0B 01 25 23
  can0  3C3   [8]  22 00 00 00 80 80 A7 5D
  can0  635   [3]  25 00 23
  can0  363   [8]  03 05 65 53 08 75 74 65
  can0  555   [8]  E0 00 6A 00 2A 00 00 48
  can0  651   [8]  C0 13 54 8F 36 55 C0 00
  can0  470   [8]  80 00 01 3A 20 00 00 00
  can0  531   [4]  00 A0 70 D0
  can0  65F   [8]  02 31 30 31 39 36 31 33
  can0  658   [8]  70 00 00 0E 40 00 00 00
  can0  58C   [8]  00 00 2E 00 00 00 00 00
  can0  351   [8]  00 00 00 00 00 00 00 00
  can0  436   [6]  0B 01 00 00 00 00
  can0  359   [8]  20 01 00 00 00 6B 40 88
  can0  365   [8]  41 0E 04 72 0F 09 04 20
  can0  3E1   [8]  20 8B 1D 02 58 00 81 00
  can0  2C3   [1]  07
  can0  6C2   [6]  A0 0F 8A FF 4A FF
  can0  470   [8]  80 00 01 3A 20 00 00 00
  can0  42B   [6]  16 01 00 00 00 00
  can0  531   [4]  00 A0 80 20
  can0  2C1   [5]  00 00 80 00 02
  can0  151   [4]  00 A4 38 9C
  can0  35B   [8]  08 00 00 50 20 18 00 00
  can0  557   [8]  60 00 00 00 1C 00 00 48
  can0  621   [7]  20 04 24 0B 01 25 23
  can0  3C3   [8]  22 00 00 00 80 20 EA BD
  can0  555   [8]  E0 00 6A 00 2A 00 00 48
  can0  363   [8]  03 05 65 53 08 75 74 65
  can0  651   [8]  C0 13 54 8F 36 55 C0 00
  can0  436   [6]  0B 01 00 00 00 00
  can0  470   [8]  80 00 01 3A 20 00 00 00
  can0  531   [4]  00 A0 90 30
  can0  658   [8]  70 00 00 0E 40 00 00 00
  can0  58C   [8]  00 00 2E 00 00 00 00 00
  can0  351   [8]  00 00 00 00 00 00 00 00
  can0  359   [8]  20 01 00 00 00 6B 40 88
  can0  5B5   [8]  08 07 00 00 00 00 00 0F
  can0  6C1   [1]  A3
  can0  523   [8]  FA 80 00 00 00 00 00 00
  can0  365   [8]  41 0E 04 72 0F 09 04 20
  can0  527   [8]  10 01 00 40 7D 8A 8B 00
  can0  3E1   [8]  20 8B 1D 02 58 00 81 00
  can0  2C3   [1]  07
  can0  42B   [6]  16 01 00 00 00 00
  can0  6C0   [6]  A1 0F 8A FF 4A FF
  can0  6C2   [6]  A0 0F 8A FF 4A FF
  can0  470   [8]  80 00 01 3A 20 00 00 00
  can0  531   [4]  00 A0 A0 00
  can0  571   [6]  89 5F 00 0B 04 00
  can0  575   [4]  C7 02 00 80
  can0  2C1   [5]  00 00 80 00 02
  can0  151   [4]  00 A4 88 2C
  can0  35B   [8]  08 00 00 50 20 18 00 00
  can0  655   [8]  F7 02 60 0F 1E 00 00 DA
  can0  621   [7]  20 04 24 0B 01 25 23
  can0  3C3   [8]  22 00 00 00 80 C0 33 1D
  can0  436   [6]  0B 01 00 00 00 00
  can0  363   [8]  05 65 53 08 75 74 65 55
  can0  635   [3]  25 00 23
  can0  555   [8]  E0 00 6A 00 2A 00 00 48
  can0  651   [8]  C0 13 54 8F 36 55 C0 00
  can0  470   [8]  80 00 01 3A 20 00 00 00
  can0  531   [4]  00 A0 B0 10
  can0  65F   [8]  00 00 00 00 00 54 52 55
  can0  658   [8]  70 00 00 0E 40 00 00 00
  can0  58C   [8]  00 00 2E 00 00 00 00 00
  can0  351   [8]  00 00 00 00 00 00 00 00
  can0  627   [8]  00 39 39 28 28 3B 3B 28
  can0  359   [8]  20 01 00 00 00 6B 40 88
  can0  365   [8]  41 0E 04 72 0F 09 04 20
  can0  60E   [2]  C7 00
  can0  42B   [6]  16 01 00 00 00 00
  can0  3E1   [8]  20 8B 1D 02 58 00 81 00
  can0  2C3   [1]  07
  can0  6C2   [6]  A0 0F 8A FF 4A FF
  can0  470   [8]  80 00 01 3A 20 00 00 00
  can0  531   [4]  00 A0 C0 60
  can0  2C1   [5]  00 00 80 00 02
  can0  151   [4]  00 A4 D8 7C
  can0  35B   [8]  08 00 00 50 20 18 00 00
  can0  653   [3]  82 02 84
  can0  436   [6]  0B 01 00 00 00 00
  can0  621   [7]  20 04 24 0B 01 25 23
  can0  3C3   [8]  22 00 00 00 80 60 7E 7D
  can0  555   [8]  E0 00 6A 00 2A 00 00 48
  can0  363   [8]  05 65 53 08 75 74 65 55
  can0  651   [8]  C0 13 54 8F 36 55 C0 00
  can0  470   [8]  80 00 01 3A 20 00 00 00
  can0  531   [4]  00 A0 D0 70
  can0  658   [8]  70 00 00 0E 40 00 00 00
  can0  58C   [8]  00 00 2E 00 00 00 00 00
  can0  351   [8]  00 00 00 00 00 00 00 00
  can0  359   [8]  20 01 00 00 00 6B 40 88
  can0  5B5   [8]  0E 01 00 00 00 00 00 0F
  can0  523   [8]  FA 80 00 00 00 00 00 00
  can0  527   [8]  10 01 00 40 7D 8A 8B 00
  can0  365   [8]  41 0E 04 72 0F 09 04 20
  can0  42B   [6]  16 01 00 00 00 00
  can0  3E1   [8]  20 8B 1D 02 58 00 81 00
  can0  2C3   [1]  07
  can0  6C2   [6]  A0 0F 8A FF 4A FF
  can0  470   [8]  80 00 01 3A 20 00 00 00
  can0  531   [4]  00 A0 E0 40
  can0  575   [4]  C7 02 00 80
  can0  2C1   [5]  00 00 80 00 02
  can0  151   [4]  00 A4 28 8C
  can0  35B   [8]  08 00 00 50 20 18 00 00
  can0  623   [8]  00 13 55 42 28 03 20 26
  can0  436   [6]  0B 01 00 00 00 00
  can0  621   [7]  20 04 24 0B 01 25 23
  can0  3C3   [8]  22 00 00 00 80 00 A0 DD
  can0  635   [3]  25 00 23
  can0  555   [8]  E0 00 6A 00 2A 00 00 48
  can0  363   [8]  05 65 53 08 75 74 65 55
  can0  651   [8]  C0 13 54 8F 36 55 C0 00
  can0  470   [8]  80 00 01 3A 20 00 00 00
  can0  531   [4]  00 A0 F0 50
  can0  65F   [8]  01 46 46 41 46 4B 34 41
  can0  658   [8]  70 00 00 0E 40 00 00 00
  can0  58C   [8]  00 00 2E 00 00 00 00 00
  can0  351   [8]  00 00 00 00 00 00 00 00
  can0  363   [8]  20 41 56 20 20 20 20 20
  can0  365   [8]  54 56 2F 56 49 44 45 4F
  can0  363   [8]  05 65 53 08 75 74 65 55
  can0  359   [8]  20 01 00 00 00 6B 40 88
  can0  363   [8]  05 65 53 08 75 74 65 55
  can0  363   [8]  05 65 53 08 75 74 65 55
  can0  363   [8]  05 65 53 08 75 74 65 55
  can0  365   [8]  41 0E 04 72 0F 09 04 20
  can0  365   [8]  41 0E 04 72 0F 09 04 20
  can0  365   [8]  41 0E 04 72 0F 09 04 20
  can0  365   [8]  41 0E 04 72 0F 09 04 20
  can0  5C3   [2]  39 00
  can0  42B   [6]  16 01 00 00 00 00
  can0  3E1   [8]  20 8B 1D 02 58 00 81 00
  can0  2C3   [1]  07
  can0  6C2   [1]  A8
  can0  470   [8]  80 00 01 3A 20 00 00 00
  can0  531   [4]  00 A0 00 A0
  can0  2C1   [5]  00 00 80 00 02
  can0  151   [4]  00 A4 78 DC
  can0  35B   [8]  08 00 00 50 20 18 00 00
  can0  65D   [8]  54 1B A4 A3 19 DE EE 15
  can0  436   [6]  0B 01 00 00 00 00
  can0  621   [7]  20 04 24 0B 01 25 23
  can0  3C3   [8]  22 00 00 00 80 A0 ED 3D
  can0  555   [8]  E0 00 6A 00 2A 00 00 48
  can0  651   [8]  C0 13 54 8F 36 55 C0 00
  can0  470   [8]  80 00 01 3A 20 00 00 00
  can0  531   [4]  00 A0 10 B0
  can0  658   [8]  70 00 00 0E 40 00 00 00
  can0  58C   [8]  00 00 2E 00 00 00 00 00
  can0  351   [8]  00 00 00 00 00 00 00 00
  can0  359   [8]  20 01 00 00 00 6B 40 88
  can0  363   [8]  05 65 53 08 75 74 65 55
  can0  365   [8]  41 0E 04 72 0F 09 04 20
  can0  5B5   [8]  04 0B 00 00 00 00 00 0F
  can0  523   [8]  FA 80 00 00 00 00 00 00
  can0  527   [8]  10 01 00 40 7D 8A 8B 00
  can0  42B   [6]  16 01 00 00 00 00
  can0  3E1   [8]  20 8B 1C 02 58 00 81 00
  can0  575   [4]  C7 02 00 C0
  can0  2C3   [1]  07
  can0  470   [8]  80 00 01 3A 20 00 00 00
  can0  531   [4]  00 A0 20 80
  can0  6C2   [6]  A0 0F 8A FF 4A FF
  can0  575   [4]  C7 02 00 C0
  can0  2C1   [5]  00 00 80 00 02
  can0  151   [4]  00 A4 C8 6C
  can0  35B   [8]  08 00 00 50 20 18 00 00
  can0  557   [8]  60 00 00 00 1C 00 00 48
  can0  436   [6]  0B 01 00 00 00 00
  can0  621   [7]  20 04 24 0B 01 25 23
  can0  3C3   [8]  22 00 00 00 80 40 34 9D
  can0  635   [3]  25 00 23
  can0  555   [8]  E0 00 6A 00 2A 00 00 48
  can0  363   [8]  65 53 08 75 74 65 55 10
  can0  651   [8]  C0 13 54 8F 36 55 C0 00
  can0  470   [8]  80 00 01 3A 20 00 00 00
  can0  531   [4]  00 A0 30 90
  can0  65F   [8]  02 31 30 31 39 36 31 33
  can0  658   [8]  70 00 00 0E 40 00 00 00
  can0  58C   [8]  00 00 2E 00 00 00 00 00
  can0  351   [8]  00 00 00 00 00 00 00 00
  can0  604   [8]  81 00 00 00 00 00 00 00
  can0  661   [8]  83 01 12 37 00 00 00 00
  can0  359   [8]  20 01 00 00 00 6B 40 88
  can0  365   [8]  41 0E 04 72 0F 09 04 20
  can0  42B   [6]  16 01 00 00 00 00
  can0  3E1   [8]  20 8B 1D 02 58 00 81 00
  can0  2C3   [1]  07
  can0  470   [8]  80 00 01 3A 20 00 00 00
  can0  531   [4]  00 A0 40 E0
  can0  571   [6]  8A 5F 00 0B 04 00
  can0  6C2   [6]  A0 0F 8A FF 4A FF
  can0  2C1   [5]  00 00 80 00 02
  can0  151   [4]  00 A4 18 BC
  can0  35B   [8]  08 00 00 50 20 18 00 00
  can0  655   [8]  F7 02 60 0F 1E 00 00 DA
  can0  436   [6]  0B 01 00 00 00 00
  can0  621   [7]  20 04 24 0B 01 25 23
  can0  3C3   [8]  22 00 00 00 80 E0 79 FD
  can0  555   [8]  E0 00 6A 00 2A 00 00 48
  can0  363   [8]  65 53 08 75 74 65 55 10
  can0  651   [8]  C0 13 54 8F 36 55 C0 00
  can0  470   [8]  80 00 01 3A 20 00 00 00
  can0  531   [4]  00 A0 50 F0
  can0  658   [8]  70 00 00 0E 40 00 00 00
  can0  58C   [8]  00 00 2E 00 00 00 00 00
  can0  351   [8]  00 00 00 00 00 00 00 00
  can0  627   [8]  00 39 39 28 28 3B 3B 28
  can0  359   [8]  20 01 00 00 00 6B 40 88
  can0  5B5   [8]  0A 05 00 00 00 00 00 0F
  can0  365   [8]  41 0E 04 72 0F 09 04 20
  can0  523   [8]  FA 80 00 00 00 00 00 00
  can0  527   [8]  10 01 00 40 7D 8A 8B 00
  can0  42B   [6]  16 01 00 00 00 00
  can0  3E1   [8]  20 8B 1D 02 58 00 81 00
  can0  2C3   [1]  07
  can0  3E3   [8]  19 11 95 00 00 79 00 00
  can0  470   [8]  80 00 01 3A 20 00 00 00
  can0  531   [4]  00 A0 60 C0
  can0  575   [4]  C7 02 00 C0
  can0  6C2   [6]  A0 0F 8A FF 4A FF
  can0  2C1   [5]  00 00 80 00 02
  can0  151   [4]  00 A4 68 CC
  can0  35B   [8]  08 00 00 50 20 18 00 00
  can0  653   [3]  82 02 84
  can0  436   [6]  0B 01 00 00 00 00
  can0  621   [7]  20 04 24 0B 01 25 23
  can0  3C3   [8]  22 00 00 00 80 80 A7 5D
  can0  635   [3]  25 00 23
  can0  555   [8]  E0 00 6A 00 2A 00 00 48
  can0  651   [8]  C0 13 54 8F 36 55 C0 00
  can0  363   [8]  65 53 08 75 74 65 55 10
  can0  470   [8]  80 00 01 3A 20 00 00 00
  can0  531   [4]  00 A0 70 D0
  can0  65F   [8]  00 00 00 00 00 54 52 55
  can0  658   [8]  70 00 00 0E 40 00 00 00
  can0  58C   [8]  00 00 2E 00 00 00 00 00
  can0  351   [8]  00 00 00 00 00 00 00 00
  can0  359   [8]  20 01 00 00 00 6B 40 88
  can0  365   [8]  41 0E 04 72 0F 09 04 20
  can0  42B   [6]  16 01 00 00 00 00
  can0  3E1   [8]  20 8B 1C 02 58 00 81 00
  can0  2C3   [1]  07
  can0  470   [8]  80 00 01 3A 20 00 00 00
  can0  531   [4]  00 A0 80 20
  can0  6C2   [6]  A0 0F 8A FF 4A FF
  can0  2C1   [5]  00 00 80 00 02
  can0  151   [4]  00 A4 B8 1C
  can0  35B   [8]  08 00 00 50 20 18 00 00
  can0  436   [6]  0B 01 00 00 00 00
  can0  621   [7]  20 04 24 0B 01 25 23
  can0  3C3   [8]  22 00 00 00 80 20 EA BD
  can0  555   [8]  E0 00 6A 00 2A 00 00 48
  can0  651   [8]  C0 13 54 8F 36 55 C0 00
  can0  470   [8]  80 00 01 3A 20 00 00 00
  can0  363   [8]  65 53 08 75 74 65 55 10
  can0  531   [4]  00 A0 90 30
  can0  658   [8]  70 00 00 0E 40 00 00 00
  can0  58C   [8]  00 00 2E 00 00 00 00 00
  can0  351   [8]  00 00 00 00 00 00 00 00
  can0  359   [8]  20 01 00 00 00 6B 40 88
  can0  6DB   [8]  80 08 30 43 38 03 00 10
  can0  5B5   [8]  00 0F 00 00 00 00 00 0F
  can0  523   [8]  FA 80 00 00 00 00 00 00
  can0  365   [8]  41 0E 04 72 0F 09 04 20
  can0  5C3   [2]  39 00
  can0  527   [8]  10 01 00 40 7D 8A 8B 00
  can0  42B   [6]  16 01 00 00 00 00
  can0  3E1   [8]  20 8B 1D 02 58 00 81 00
  can0  2C3   [1]  07
  can0  470   [8]  80 00 01 3A 20 00 00 00
  can0  531   [4]  00 A0 A0 00
  can0  575   [4]  C7 02 00 C0
  can0  6C2   [6]  A0 0F 8A FF 4A FF
  can0  6DB   [5]  C0 40 00 00 00
  can0  2C1   [5]  00 00 80 00 02
  can0  151   [4]  00 A4 08 AC
  can0  35B   [8]  08 00 00 50 20 18 00 00
  can0  436   [6]  0B 01 00 00 00 00
  can0  621   [7]  20 04 24 0B 01 25 23
  can0  3C3   [8]  22 00 00 00 80 C0 33 1D
  can0  635   [3]  25 00 23
  can0  555   [8]  E0 00 6A 00 2A 00 00 48
  can0  363   [8]  53 08 75 74 65 55 10 65
  can0  651   [8]  C0 13 54 8F 36 55 C0 00
  can0  470   [8]  80 00 01 3A 20 00 00 00
  can0  531   [4]  00 A0 B0 10
  can0  65F   [8]  01 46 46 41 46 4B 34 41
  can0  658   [8]  70 00 00 0E 40 00 00 00
  can0  58C   [8]  00 00 2E 00 00 00 00 00
  can0  351   [8]  00 00 00 00 00 00 00 00
  can0  359   [8]  20 01 00 00 00 6B 40 88
  can0  365   [8]  41 0E 04 72 0F 09 04 20
  can0  42B   [6]  16 01 00 00 00 00
  can0  3E1   [8]  20 8B 1D 02 58 00 81 00
  can0  2C3   [1]  07
  can0  470   [8]  80 00 01 3A 20 00 00 00
  can0  531   [4]  00 A0 C0 60
  can0  6C2   [6]  A0 0F 8A FF 4A FF
  can0  2C1   [5]  00 00 80 00 02
  can0  151   [4]  00 A4 58 FC
  can0  35B   [8]  08 00 00 50 20 18 00 00
  can0  557   [8]  60 00 00 00 1C 00 00 48
  can0  436   [6]  0B 01 00 00 00 00
  can0  621   [7]  20 04 24 0B 01 25 23
  can0  3C3   [8]  22 00 00 00 80 60 7E 7D
  can0  555   [8]  E0 00 6A 00 2A 00 00 48
  can0  651   [8]  C0 13 54 8F 36 55 C0 00
  can0  363   [8]  53 08 75 74 65 55 10 65
  can0  470   [8]  80 00 01 3A 20 00 00 00
  can0  531   [4]  00 A0 D0 70
  can0  658   [8]  70 00 00 0E 40 00 00 00
  can0  58C   [8]  00 00 2E 00 00 00 00 00
  can0  351   [8]  00 00 00 00 00 00 00 00
  can0  359   [8]  20 01 00 00 00 6B 40 88
  can0  5B5   [8]  06 09 00 00 00 00 00 0F
  can0  523   [8]  FA 80 00 00 00 00 00 00
  can0  365   [8]  41 0E 04 72 0F 09 04 20
  can0  527   [8]  10 01 00 40 7D 8A 8B 00
  can0  42B   [6]  16 01 00 00 00 00
  can0  3E1   [8]  20 8B 1D 02 58 00 81 00
  can0  2C3   [1]  07
  can0  6C1   [1]  A3
  can0  6C0   [6]  A1 0F 8A FF 4A FF
  can0  470   [8]  80 00 01 3A 20 00 00 00
  can0  531   [4]  00 A0 E0 40
  can0  571   [6]  89 5F 00 0B 04 00
  can0  575   [4]  C7 02 00 C0
  can0  6C2   [6]  A0 0F 8A FF 4A FF
  can0  2C1   [5]  00 00 80 00 02
  can0  151   [4]  00 A4 A8 0C
  can0  35B   [8]  08 00 00 50 20 18 00 00
  can0  655   [8]  F7 02 60 0F 1E 00 00 DA
  can0  436   [6]  0B 01 00 00 00 00
  can0  621   [7]  20 04 24 0B 01 25 23
  can0  3C3   [8]  22 00 00 00 80 00 A0 DD
  can0  635   [3]  25 00 23
  can0  555   [8]  E0 00 6A 00 2A 00 00 48
  can0  651   [8]  C0 13 54 8F 36 55 C0 00
  can0  470   [8]  80 00 01 3A 20 00 00 00
  can0  363   [8]  53 08 75 74 65 55 10 65
  can0  531   [4]  00 A0 F0 50
  can0  65F   [8]  02 31 30 31 39 36 31 33
  can0  658   [8]  70 00 00 0E 40 00 00 00
  can0  58C   [8]  00 00 2E 00 00 00 00 00
  can0  351   [8]  00 00 00 00 00 00 00 00
  can0  363   [8]  20 41 56 20 20 20 20 20
  can0  365   [8]  54 56 2F 56 49 44 45 4F
  can0  363   [8]  53 08 75 74 65 55 10 65
  can0  627   [8]  00 39 39 28 28 3B 3B 28
  can0  363   [8]  53 08 75 74 65 55 10 65
  can0  359   [8]  20 01 00 00 00 6B 40 88
  can0  363   [8]  53 08 75 74 65 55 10 65
  can0  365   [8]  41 0E 04 72 0F 09 04 20
  can0  365   [8]  41 0E 04 72 0F 09 04 20
  can0  365   [8]  41 0E 04 72 0F 09 04 20
  can0  363   [8]  53 08 75 74 65 55 10 65
  can0  365   [8]  41 0E 04 72 0F 09 04 20
  can0  3E1   [8]  20 8B 1C 02 58 00 81 00
  can0  60E   [2]  C7 00
  can0  42B   [6]  16 01 00 00 00 00
  can0  2C3   [1]  07
  can0  470   [8]  80 00 01 3A 20 00 00 00
  can0  531   [4]  00 A0 00 A0
  can0  6C2   [6]  A0 0F 8A FF 4A FF
  can0  2C1   [5]  00 00 80 00 02
  can0  151   [4]  00 A4 F8 5C
  can0  35B   [8]  08 00 00 50 20 18 00 00
  can0  653   [3]  82 02 84
  can0  436   [6]  0B 01 00 00 00 00
  can0  621   [7]  20 04 24 0B 01 25 23
  can0  3C3   [8]  22 00 00 00 80 A0 ED 3D
  can0  555   [8]  E0 00 6A 00 2A 00 00 48
  can0  651   [8]  C0 13 54 8F 36 55 C0 00
  can0  470   [8]  80 00 01 3A 20 00 00 00
  can0  531   [4]  00 A0 10 B0
  can0  658   [8]  70 00 00 0E 40 00 00 00
  can0  58C   [8]  00 00 2E 00 00 00 00 00
  can0  351   [8]  00 00 00 00 00 00 00 00
  can0  359   [8]  20 01 00 00 00 6B 40 88
  can0  363   [8]  53 08 75 74 65 55 10 65
  can0  5B5   [8]  0C 03 00 00 00 00 00 0F
  can0  365   [8]  41 0E 04 72 0F 09 04 20
  can0  523   [8]  FA 80 00 00 00 00 00 00
  can0  527   [8]  10 01 00 40 7D 8A 8B 00
  can0  3E1   [8]  20 8B 1D 02 58 00 81 00
  can0  42B   [6]  16 01 00 00 00 00
  can0  575   [4]  C7 02 00 80
  can0  2C3   [1]  07
  can0  470   [8]  80 00 01 3A 20 00 00 00
  can0  531   [4]  00 A0 20 80
  can0  6C2   [6]  A0 0F 8A FF 4A FF
  can0  575   [4]  C7 02 00 80
  can0  151   [4]  00 A4 48 EC
  can0  2C1   [5]  00 00 80 00 02
  can0  35B   [8]  08 00 00 50 20 18 00 00
  can0  623   [8]  00 13 55 43 28 03 20 26
  can0  436   [6]  0B 01 00 00 00 00
  can0  621   [7]  20 04 24 0B 01 25 23
  can0  3C3   [8]  22 00 00 00 80 40 34 9D
  can0  635   [3]  25 00 23
  can0  555   [8]  E0 00 6A 00 2A 00 00 48
  can0  651   [8]  C0 13 54 8F 36 55 C0 00
  can0  363   [8]  08 75 74 65 55 10 65 01
  can0  470   [8]  80 00 01 3A 20 00 00 00
  can0  531   [4]  00 A0 30 90
  can0  65F   [8]  00 00 00 00 00 54 52 55
  can0  658   [8]  70 00 00 0E 40 00 00 00
  can0  58C   [8]  00 00 2E 00 00 00 00 00
  can0  351   [8]  00 00 00 00 00 00 00 00
  can0  359   [8]  20 01 00 00 00 6B 40 88
  can0  365   [8]  41 0E 04 72 0F 09 04 20
  can0  5C3   [2]  39 00
  can0  3E1   [8]  20 8B 1D 02 58 00 81 00
  can0  42B   [6]  16 01 00 00 00 00
  can0  2C3   [1]  07
  can0  470   [8]  80 00 01 3A 20 00 00 00
  can0  531   [4]  00 A0 40 E0
  can0  6C2   [6]  A0 0F 8A FF 4A FF
  can0  2C1   [5]  00 00 80 00 02
  can0  151   [4]  00 A4 98 3C
  can0  35B   [8]  08 00 00 50 20 18 00 00
  can0  65D   [8]  54 1B A4 A3 19 DE 6E 16
  can0  436   [6]  0B 01 00 00 00 00
  can0  621   [7]  20 04 24 0B 01 25 23
  can0  3C3   [8]  22 00 00 00 80 E0 79 FD
  can0  555   [8]  E0 00 6A 00 2A 00 00 48
  can0  651   [8]  C0 13 54 8F 36 55 C0 00
  can0  363   [8]  08 75 74 65 55 10 65 01
  can0  470   [8]  80 00 01 3A 20 00 00 00
  can0  531   [4]  00 A0 50 F0
  can0  658   [8]  70 00 00 0E 40 00 00 00
  can0  58C   [8]  00 00 2E 00 00 00 00 00
  can0  351   [8]  00 00 00 00 00 00 00 00
  can0  359   [8]  20 01 00 00 00 6B 40 88
  can0  5B5   [8]  02 0D 00 00 00 00 00 0F
  can0  365   [8]  41 0E 04 72 0F 09 04 20
  can0  523   [8]  FA 80 00 00 00 00 00 00
  can0  527   [8]  10 01 00 40 7D 8A 8B 00
  can0  3E1   [8]  20 8B 1D 02 58 00 81 00
  can0  42B   [6]  16 01 00 00 00 00
  can0  3E3   [8]  19 11 95 00 00 79 00 00
  can0  2C3   [1]  07
  can0  470   [8]  80 00 01 3A 20 00 00 00
  can0  531   [4]  00 A0 60 C0
  can0  575   [4]  C7 02 00 80
  can0  6C2   [6]  A0 0F 8A FF 4A FF
  can0  2C1   [5]  00 00 80 00 02
  can0  151   [4]  00 A4 E8 4C
  can0  35B   [8]  08 00 00 50 20 18 00 00
  can0  557   [8]  60 00 00 00 1C 00 00 48
  can0  436   [6]  0B 01 00 00 00 00
  can0  621   [7]  20 04 24 0B 01 25 23
  can0  3C3   [8]  22 00 00 00 80 80 A7 5D
  can0  635   [3]  25 00 23
  can0  555   [8]  E0 00 6A 00 2A 00 00 48
  can0  651   [8]  C0 13 54 8F 36 55 C0 00
  can0  470   [8]  80 00 01 3A 20 00 00 00
  can0  531   [4]  00 A0 70 D0
  can0  65F   [8]  01 46 46 41 46 4B 34 41
  can0  363   [8]  08 75 74 65 55 10 65 01
  can0  658   [8]  70 00 00 0E 40 00 00 00
  can0  58C   [8]  00 00 2E 00 00 00 00 00
  can0  351   [8]  00 00 00 00 00 00 00 00
  can0  604   [8]  81 00 00 00 00 00 00 00
  can0  359   [8]  20 01 00 00 00 6B 40 88
  can0  661   [8]  83 01 12 37 00 00 00 00
  can0  365   [8]  41 0E 04 72 0F 09 04 20
  can0  3E1   [8]  20 8B 1D 02 58 00 81 00
  can0  42B   [6]  16 01 00 00 00 00
  can0  2C3   [1]  07
  can0  470   [8]  80 00 01 3A 20 00 00 00
  can0  531   [4]  00 A0 80 20
  can0  571   [6]  89 5F 00 0B 04 00
  can0  6C2   [1]  A8
  can0  2C1   [5]  00 00 80 00 02
  can0  151   [4]  00 A4 38 9C
  can0  35B   [8]  08 00 00 50 20 18 00 00
  can0  655   [8]  F7 02 60 0F 1E 00 00 DA
  can0  436   [6]  0B 01 00 00 00 00
  can0  621   [7]  20 04 24 0B 01 25 23
  can0  3C3   [8]  22 00 00 00 80 20 EA BD
  can0  555   [8]  E0 00 6A 00 2A 00 00 48
  can0  651   [8]  C0 13 54 8F 36 55 C0 00
  can0  470   [8]  80 00 01 3A 20 00 00 00
  can0  531   [4]  00 A0 90 30
  can0  658   [8]  70 00 00 0E 40 00 00 00
  can0  363   [8]  08 75 74 65 55 10 65 01
  can0  58C   [8]  00 00 2E 00 00 00 00 00
  can0  351   [8]  00 00 00 00 00 00 00 00
  can0  627   [8]  00 39 39 28 28 3B 3B 28
  can0  359   [8]  20 01 00 00 00 6B 40 88
  can0  5B5   [8]  08 07 00 00 00 00 00 0F
  can0  523   [8]  FA 80 00 00 00 00 00 00
  can0  365   [8]  41 0E 04 72 0F 09 04 20
  can0  527   [8]  10 01 00 40 7D 8A 8B 00
  can0  3E1   [8]  20 8B 1D 02 58 00 81 00
  can0  42B   [6]  16 01 00 00 00 00
  can0  2C3   [1]  07
  can0  470   [8]  80 00 01 3A 20 00 00 00
  can0  531   [4]  00 A0 A0 00
  can0  575   [4]  C7 02 00 80
  can0  2C1   [5]  00 00 80 00 02
  can0  151   [4]  00 A4 88 2C
  can0  6C2   [6]  A0 0F 8A FF 4A FF
  can0  35B   [8]  08 00 00 50 20 18 00 00
  can0  653   [3]  82 02 84
  can0  436   [6]  0B 01 00 00 00 00
  can0  621   [7]  20 04 24 0B 01 25 23
  can0  3C3   [8]  22 00 00 00 80 C0 33 1D
  can0  635   [3]  25 00 23
  can0  555   [8]  E0 00 6A 00 2A 00 00 48
  can0  651   [8]  C0 13 54 8F 36 55 C0 00
  can0  363   [8]  75 74 65 55 10 65 01 0E
  can0  470   [8]  80 00 01 3A 20 00 00 00
  can0  65F   [8]  02 31 30 31 39 36 31 33
  can0  531   [4]  00 A0 B0 10
  can0  658   [8]  70 00 00 0E 40 00 00 00
  can0  58C   [8]  00 00 2E 00 00 00 00 00
  can0  351   [8]  00 00 00 00 00 00 00 00
  can0  359   [8]  20 01 00 00 00 6B 40 88
  can0  365   [8]  41 0E 04 72 0F 09 04 20
  can0  3E1   [8]  20 8B 1D 02 58 00 81 00
  can0  42B   [6]  16 01 00 00 00 00
  can0  2C3   [1]  07
  can0  470   [8]  80 00 01 3A 20 00 00 00
  can0  531   [4]  00 A0 C0 60
  can0  2C1   [5]  00 00 80 00 02
  can0  151   [4]  00 A4 D8 7C
  can0  6C2   [6]  A0 0F 8A FF 4A FF
  can0  35B   [8]  08 00 00 50 20 18 00 00
  can0  436   [6]  0B 01 00 00 00 00
  can0  621   [7]  20 04 24 0B 01 25 23
  can0  3C3   [8]  22 00 00 00 80 60 7E 7D
  can0  555   [8]  E0 00 6A 00 2A 00 00 48
  can0  651   [8]  C0 13 54 8F 36 55 C0 00
  can0  470   [8]  80 00 01 3A 20 00 00 00
  can0  531   [4]  00 A0 D0 70
  can0  363   [8]  75 74 65 55 10 65 01 0E
  can0  658   [8]  70 00 00 0E 40 00 00 00
  can0  58C   [8]  00 00 2E 00 00 00 00 00
  can0  6DB   [3]  30 44 0A
  can0  351   [8]  00 00 00 00 00 00 00 00
  can0  359   [8]  20 01 00 00 00 6B 40 88
  can0  5B5   [8]  0E 01 00 00 00 00 00 0F
  can0  523   [8]  FA 80 00 00 00 00 00 00
  can0  365   [8]  41 0E 04 72 0F 09 04 20
  can0  3E1   [8]  20 8B 1D 02 58 00 81 00
  can0  527   [8]  10 01 00 40 7D 8A 8B 00
  can0  5C3   [2]  39 00
  can0  42B   [6]  16 01 00 00 00 00
  can0  2C3   [1]  07
  can0  470   [8]  80 00 01 3A 20 00 00 00
  can0  531   [4]  00 A0 E0 40
  can0  575   [4]  C7 02 00 80
  can0  2C1   [5]  00 00 80 00 02
  can0  151   [4]  00 A4 28 8C
  can0  6C2   [6]  A0 0F 8A FF 4A FF
  can0  35B   [8]  08 00 00 50 20 18 00 00
  can0  436   [6]  0B 01 00 00 00 00
  can0  621   [7]  20 04 24 0B 01 25 23
  can0  3C3   [8]  22 00 00 00 80 00 A0 DD
  can0  635   [3]  25 00 23
  can0  555   [8]  E0 00 6A 00 2A 00 00 48
  can0  651   [8]  C0 13 54 8F 36 55 C0 00
  can0  470   [8]  80 00 01 3A 20 00 00 00
  can0  531   [4]  00 A0 F0 50
  can0  65F   [8]  00 00 00 00 00 54 52 55
  can0  363   [8]  75 74 65 55 10 65 01 0E
  can0  658   [8]  70 00 00 0E 40 00 00 00
  can0  58C   [8]  00 00 2E 00 00 00 00 00
  can0  351   [8]  00 00 00 00 00 00 00 00
  can0  359   [8]  20 01 00 00 00 6B 40 88
  can0  363   [8]  20 41 56 20 20 20 20 20
  can0  365   [8]  54 56 2F 56 49 44 45 4F
  can0  363   [8]  75 74 65 55 10 65 01 0E
  can0  363   [8]  75 74 65 55 10 65 01 0E
  can0  363   [8]  75 74 65 55 10 65 01 0E
  can0  365   [8]  41 0E 04 72 0F 09 04 20
  can0  365   [8]  41 0E 04 72 0F 09 04 20
  can0  365   [8]  41 0E 04 72 0F 09 04 20
  can0  363   [8]  75 74 65 55 10 65 01 0E
  can0  365   [8]  41 0E 04 72 0F 09 04 20
  can0  3E1   [8]  20 8B 1D 02 58 00 81 00
  can0  42B   [6]  16 01 00 00 00 00
  can0  2C3   [1]  07
  can0  470   [8]  80 00 01 3A 20 00 00 00
  can0  531   [4]  00 A0 00 A0
  can0  2C1   [5]  00 00 80 00 02
  can0  151   [4]  00 A4 78 DC
  can0  436   [6]  0B 01 00 00 00 00
  can0  6C2   [6]  A0 0F 8A FF 4A FF
  can0  35B   [8]  08 00 00 50 20 18 00 00
  can0  557   [8]  60 00 00 00 1C 00 00 48
  can0  621   [7]  20 04 24 0B 01 25 23
  can0  3C3   [8]  22 00 00 00 80 A0 ED 3D
  can0  555   [8]  E0 00 6A 00 2A 00 00 48
  can0  651   [8]  C0 13 54 8F 36 55 C0 00
  can0  470   [8]  80 00 01 3A 20 00 00 00
  can0  531   [4]  00 A0 10 B0
  can0  658   [8]  70 00 00 0E 40 00 00 00
  can0  58C   [8]  00 00 2E 00 00 00 00 00
  can0  351   [8]  00 00 00 00 00 00 00 00
  can0  359   [8]  20 01 00 00 00 6B 40 88
  can0  5B5   [8]  04 0B 00 00 00 00 00 0F
  can0  363   [8]  75 74 65 55 10 65 01 0E
  can0  42B   [6]  16 01 00 00 00 00
  can0  365   [8]  41 0E 04 72 0F 09 04 20
  can0  523   [8]  FA 80 00 00 00 00 00 00
  can0  3E1   [8]  20 8B 1E 02 58 00 81 00
  can0  527   [8]  10 01 00 40 7D 8A 8B 00
  can0  575   [4]  C7 02 00 C0
  can0  6C1   [1]  A3
  can0  2C3   [1]  07
  can0  6C0   [6]  A1 0F 8A FF 4A FF
  can0  470   [8]  80 00 01 3A 20 00 00 00
  can0  531   [4]  00 A0 20 80
  can0  571   [6]  8A 5F 00 0B 04 00
  can0  436   [6]  0B 01 00 00 00 00
  can0  575   [4]  C7 02 00 C0
  can0  2C1   [5]  00 00 80 00 02
  can0  151   [4]  00 A4 C8 6C
  can0  6C2   [6]  A0 0F 8A FF 4A FF
  can0  35B   [8]  08 00 00 50 20 18 00 00
  can0  655   [8]  F7 02 60 0F 1E 00 00 DA
  can0  621   [7]  20 04 24 0B 01 25 23
  can0  3C3   [8]  22 00 00 00 80 40 34 9D
  can0  635   [3]  25 00 23
  can0  555   [8]  E0 00 6A 00 2A 00 00 48
  can0  651   [8]  C0 13 54 8F 36 55 C0 00
  can0  470   [8]  80 00 01 3A 20 00 00 00
  can0  363   [8]  74 65 55 10 65 01 0E 04
  can0  531   [4]  00 A0 30 90
  can0  65F   [8]  01 46 46 41 46 4B 34 41
  can0  658   [8]  70 00 00 0E 40 00 00 00
  can0  58C   [8]  00 00 2E 00 00 00 00 00
  can0  351   [8]  00 00 00 00 00 00 00 00
  can0  42B   [6]  16 01 00 00 00 00
  can0  627   [8]  00 39 39 28 28 3B 3B 28
  can0  359   [8]  20 01 00 00 00 6B 40 88
  can0  365   [8]  41 0E 04 72 0F 09 04 20
  can0  3E1   [8]  20 8B 1D 02 58 00 81 00
  can0  60E   [2]  C7 00
  can0  2C3   [1]  07
  can0  470   [8]  80 00 01 3A 20 00 00 00
  can0  531   [4]  00 A0 40 E0
  can0  436   [6]  0B 01 00 00 00 00
  can0  2C1   [5]  00 00 80 00 02
  can0  151   [4]  00 A4 18 BC
  can0  6C2   [6]  A0 0F 8A FF 4A FF
  can0  35B   [8]  08 00 00 50 20 18 00 00
  can0  653   [3]  82 02 84
  can0  621   [7]  20 04 24 0B 01 25 23
  can0  3C3   [8]  22 00 00 00 80 E0 79 FD
  can0  555   [8]  E0 00 6A 00 2A 00 00 48
  can0  651   [8]  C0 13 54 8F 36 55 C0 00
  can0  470   [8]  80 00 01 3A 20 00 00 00
  can0  531   [4]  00 A0 50 F0
  can0  42B   [6]  16 01 00 00 00 00
  can0  363   [8]  74 65 55 10 65 01 0E 04
  can0  658   [8]  70 00 00 0E 40 00 00 00
  can0  58C   [8]  00 00 2E 00 00 00 00 00
  can0  351   [8]  00 00 00 00 00 00 00 00
  can0  359   [8]  20 01 00 00 00 6B 40 88
  can0  5B5   [8]  0A 05 00 00 00 00 00 0F
  can0  523   [8]  FA 80 00 00 00 00 00 00
  can0  365   [8]  41 0E 04 72 0F 09 04 20
  can0  3E1   [8]  20 8B 1D 02 58 00 81 00
  can0  527   [8]  10 01 00 40 7D 8A 8B 00
  can0  3E3   [8]  19 11 95 00 00 79 00 00
  can0  2C3   [1]  07
  can0  436   [6]  0B 01 00 00 00 00
  can0  470   [8]  80 00 01 3A 20 00 00 00
  can0  531   [4]  00 A0 60 C0
  can0  575   [4]  C7 02 00 C0
  can0  151   [4]  00 A4 68 CC
  can0  2C1   [5]  00 00 80 00 02
  can0  6C2   [6]  A0 0F 8A FF 4A FF
  can0  35B   [8]  08 00 00 50 20 18 00 00
  can0  623   [8]  00 13 55 44 28 03 20 26
  can0  621   [7]  20 04 24 0B 01 25 23
  can0  3C3   [8]  22 00 00 00 80 80 A7 5D
  can0  42B   [6]  16 01 00 00 00 00
  can0  635   [3]  25 00 23
  can0  555   [8]  E0 00 6A 00 2A 00 00 48
  can0  651   [8]  C0 13 54 8F 36 55 C0 00
  can0  470   [8]  80 00 01 3A 20 00 00 00
  can0  531   [4]  00 A0 70 D0
  can0  65F   [8]  02 31 30 31 39 36 31 33
  can0  658   [8]  70 00 00 0E 40 00 00 00
  can0  363   [8]  74 65 55 10 65 01 0E 04
  can0  58C   [8]  00 00 2E 00 00 00 00 00
  can0  351   [8]  00 00 00 00 00 00 00 00
  can0  359   [8]  20 01 00 00 00 6B 40 88
  can0  3E1   [8]  20 8B 1D 02 58 00 81 00
  can0  365   [8]  41 0E 04 72 0F 09 04 20
  can0  5C3   [2]  39 00
  can0  436   [6]  0B 01 00 00 00 00
  can0  2C3   [1]  07
  can0  470   [8]  80 00 01 3A 20 00 00 00
  can0  531   [4]  00 A0 80 20
  can0  2C1   [5]  00 00 80 00 02
  can0  151   [4]  00 A4 B8 1C
  can0  6C2   [6]  A0 0F 8A FF 4A FF
  can0  35B   [8]  08 00 00 50 20 18 00 00
  can0  65D   [8]  54 1B A4 A3 19 DE EE 16
  can0  42B   [6]  16 01 00 00 00 00
  can0  621   [7]  20 04 24 0B 01 25 23
  can0  3C3   [8]  22 00 00 00 80 20 EA BD
  can0  555   [8]  E0 00 6A 00 2A 00 00 48
  can0  651   [8]  C0 13 54 8F 36 55 C0 00
  can0  470   [8]  80 00 01 3A 20 00 00 00
  can0  531   [4]  00 A0 90 30
  can0  658   [8]  70 00 00 0E 40 00 00 00
  can0  363   [8]  74 65 55 10 65 01 0E 04
  can0  58C   [8]  00 00 2E 00 00 00 00 00
  can0  351   [8]  00 00 00 00 00 00 00 00
  can0  359   [8]  20 01 00 00 00 6B 40 88
  can0  5B5   [8]  00 0F 00 00 00 00 00 0F
  can0  3E1   [8]  20 8B 1D 02 58 00 81 00
  can0  436   [6]  0B 01 00 00 00 00
  can0  365   [8]  41 0E 04 72 0F 09 04 20
  can0  523   [8]  FA 80 00 00 00 00 00 00
  can0  527   [8]  10 01 00 40 7D 8A 8B 00
  can0  2C3   [1]  07
  can0  470   [8]  80 00 01 3A 20 00 00 00
  can0  531   [4]  00 A0 A0 00
  can0  575   [4]  C7 02 00 C0
  can0  42B   [6]  16 01 00 00 00 00
  can0  2C1   [5]  00 00 80 00 02
  can0  151   [4]  00 A4 08 AC
  can0  6C2   [6]  A0 0F 8A FF 4A FF
  can0  35B   [8]  08 00 00 50 20 18 00 00
  can0  557   [8]  60 00 00 00 1C 00 00 48
  can0  621   [7]  20 04 24 0B 01 25 23
  can0  3C3   [8]  22 00 00 00 80 C0 33 1D
  can0  635   [3]  25 00 23
  can0  555   [8]  E0 00 6A 00 2A 00 00 48
  can0  651   [8]  C0 13 54 8F 36 55 C0 00
  can0  470   [8]  80 00 01 3A 20 00 00 00
  can0  531   [4]  00 A0 B0 10
  can0  65F   [8]  00 00 00 00 00 54 52 55
  can0  363   [8]  65 55 10 65 01 0E 04 65
  can0  658   [8]  70 00 00 0E 40 00 00 00
  can0  58C   [8]  00 00 2E 00 00 00 00 00
  can0  351   [8]  00 00 00 00 00 00 00 00
  can0  359   [8]  20 01 00 00 00 6B 40 88
  can0  436   [6]  0B 01 00 00 00 00
  can0  604   [8]  81 00 00 00 00 00 00 00
  can0  661   [8]  83 01 12 37 00 00 00 00
  can0  3E1   [8]  20 8B 1D 02 58 00 81 00
  can0  365   [8]  41 0E 04 72 0F 09 04 20
  can0  2C3   [1]  07
  can0  470   [8]  80 00 01 3A 20 00 00 00
  can0  531   [4]  00 A0 C0 60
  can0  571   [6]  8A 5F 00 0B 04 00
  can0  42B   [6]  16 01 00 00 00 00
  can0  151   [4]  00 A4 58 FC
  can0  2C1   [5]  00 00 80 00 02
  can0  6C2   [6]  A0 0F 8A FF 4A FF
  can0  35B   [8]  08 00 00 50 20 18 00 00
  can0  655   [8]  F7 02 60 0F 1E 00 00 DA
  can0  621   [7]  20 04 24 0B 01 25 23
  can0  3C3   [8]  22 00 00 00 80 60 7E 7D
  can0  555   [8]  E0 00 6A 00 2A 00 00 48
  can0  651   [8]  C0 13 54 8F 36 55 C0 00
  can0  470   [8]  80 00 01 3A 20 00 00 00
  can0  531   [4]  00 A0 D0 70
  can0  658   [8]  70 00 00 0E 40 00 00 00
  can0  363   [8]  65 55 10 65 01 0E 04 65
  can0  436   [6]  0B 01 00 00 00 00
  can0  58C   [8]  00 00 2E 00 00 00 00 00
  can0  351   [8]  00 00 00 00 00 00 00 00
  can0  627   [8]  00 39 39 28 28 3B 3B 28
  can0  359   [8]  20 01 00 00 00 6B 40 88
  can0  5B5   [8]  06 09 00 00 00 00 00 0F
  can0  3E1   [8]  20 8B 1D 02 58 00 81 00
  can0  523   [8]  FA 80 00 00 00 00 00 00
  can0  527   [8]  10 01 00 40 7D 8A 8B 00
  can0  365   [8]  41 0E 04 72 0F 09 04 20
  can0  2C3   [1]  07
  can0  470   [8]  80 00 01 3A 20 00 00 00
  can0  42B   [6]  16 01 00 00 00 00
  can0  531   [4]  00 A0 E0 40
  can0  575   [4]  C7 02 00 C0
  can0  2C1   [5]  00 00 80 00 02
  can0  151   [4]  00 A4 A8 0C
  can0  6C2   [6]  A0 0F 8A FF 4A FF
  can0  35B   [8]  08 00 00 50 20 18 00 00
  can0  653   [3]  82 02 84
  can0  621   [7]  20 04 24 0B 01 25 23
  can0  3C3   [8]  22 00 00 00 80 00 A0 DD
  can0  635   [3]  25 00 23
  can0  555   [8]  E0 00 6A 00 2A 00 00 48
  can0  436   [6]  0B 01 00 00 00 00
  can0  651   [8]  C0 13 54 8F 36 55 C0 00
  can0  470   [8]  80 00 01 3A 20 00 00 00
  can0  531   [4]  00 A0 F0 50
  can0  65F   [8]  01 46 46 41 46 4B 34 41
  can0  658   [8]  70 00 00 0E 40 00 00 00
  can0  363   [8]  65 55 10 65 01 0E 04 65
  can0  58C   [8]  00 00 2E 00 00 00 00 00
  can0  351   [8]  00 00 00 00 00 00 00 00
  can0  359   [8]  20 01 00 00 00 6B 40 88
  can0  363   [8]  20 41 56 20 20 20 20 20
  can0  365   [8]  54 56 2F 56 49 44 45 4F
  can0  363   [8]  65 55 10 65 01 0E 04 65
  can0  363   [8]  65 55 10 65 01 0E 04 65
  can0  363   [8]  65 55 10 65 01 0E 04 65
  can0  365   [8]  41 0E 04 72 0F 09 04 20
  can0  3E1   [8]  20 8B 1D 02 58 00 81 00
  can0  365   [8]  41 0E 04 72 0F 09 04 20
  can0  365   [8]  41 0E 04 72 0F 09 04 20
  can0  365   [8]  41 0E 04 72 0F 09 04 20
  can0  363   [8]  65 55 10 65 01 0E 04 65
  can0  42B   [6]  16 01 00 00 00 00
  can0  2C3   [1]  07
  can0  470   [8]  80 00 01 3A 20 00 00 00
  can0  531   [4]  00 A0 00 A0
  can0  151   [4]  00 A4 F8 5C
  can0  2C1   [5]  00 00 80 00 02
  can0  6C2   [1]  A8
  can0  35B   [8]  08 00 00 50 20 18 00 00
  can0  621   [7]  20 04 24 0B 01 25 23
  can0  436   [6]  0B 01 00 00 00 00
  can0  3C3   [8]  22 00 00 00 80 A0 ED 3D
  can0  555   [8]  E0 00 6A 00 2A 00 00 48
  can0  651   [8]  C0 13 54 8F 36 55 C0 00
  can0  470   [8]  80 00 01 3A 20 00 00 00
  can0  531   [4]  00 A0 10 B0
  can0  6DB   [8]  30 4E 01 00 00 00 00 00
  can0  658   [8]  70 00 00 0E 40 00 00 00
  can0  58C   [8]  00 00 2E 00 00 00 00 00
  can0  351   [8]  00 00 00 00 00 00 00 00
  can0  359   [8]  20 01 00 00 00 6B 40 88
  can0  5B5   [8]  0C 03 00 00 00 00 00 0F
  can0  365   [8]  41 0E 04 72 0F 09 04 20
  can0  3E1   [8]  20 8B 1D 02 58 00 81 00
  can0  363   [8]  65 55 10 65 01 0E 04 65
  can0  523   [8]  FA 80 00 00 00 00 00 00
  can0  5C3   [2]  39 00
  can0  527   [8]  10 01 00 40 7D 8A 8B 00
  can0  42B   [6]  16 01 00 00 00 00
  can0  575   [4]  C7 02 00 80
  can0  2C3   [1]  07
  can0  470   [8]  80 00 01 3A 20 00 00 00
  can0  531   [4]  00 A0 20 80
  can0  575   [4]  C7 02 00 80
  can0  151   [4]  00 A4 48 EC
  can0  2C1   [5]  00 00 80 00 02
  can0  436   [6]  0B 01 00 00 00 00
  can0  35B   [8]  08 00 00 50 20 18 00 00
  can0  621   [7]  20 04 24 0B 01 25 23
  can0  6C2   [6]  A0 0F 8A FF 4A FF
  can0  3C3   [8]  22 00 00 00 80 40 34 9D
  can0  635   [3]  25 00 23
  can0  555   [8]  E0 00 6A 00 2A 00 00 48
  can0  651   [8]  C0 13 54 8F 36 55 C0 00
  can0  470   [8]  80 00 01 3A 20 00 00 00
  can0  531   [4]  00 A0 30 90
  can0  65F   [8]  02 31 30 31 39 36 31 33
  can0  363   [8]  55 10 65 01 0E 04 65 44
  can0  658   [8]  70 00 00 0E 40 00 00 00
  can0  58C   [8]  00 00 2E 00 00 00 00 00
  can0  351   [8]  00 00 00 00 00 00 00 00
  can0  359   [8]  20 01 00 00 00 6B 40 88
  can0  3E1   [8]  20 8B 1D 02 58 00 81 00
  can0  42B   [6]  16 01 00 00 00 00
  can0  365   [8]  41 0E 04 72 0F 09 04 20
  can0  2C3   [1]  07
  can0  470   [8]  80 00 01 3A 20 00 00 00
  can0  531   [4]  00 A0 40 E0
  can0  436   [6]  0B 01 00 00 00 00
  can0  151   [4]  00 A4 98 3C
  can0  2C1   [5]  00 00 80 00 02
  can0  35B   [8]  08 00 00 50 20 18 00 00
  can0  557   [8]  60 00 00 00 1C 00 00 48
  can0  621   [7]  20 04 24 0B 01 25 23
  can0  6C2   [6]  A0 0F 8A FF 4A FF
  can0  3C3   [8]  22 00 00 00 80 E0 79 FD
  can0  555   [8]  E0 00 6A 00 2A 00 00 48
  can0  651   [8]  C0 13 54 8F 36 55 C0 00
  can0  470   [8]  80 00 01 3A 20 00 00 00
  can0  531   [4]  00 A0 50 F0
  can0  658   [8]  70 00 00 0E 40 00 00 00
  can0  363   [8]  55 10 65 01 0E 04 65 44
  can0  58C   [8]  00 00 2E 00 00 00 00 00
  can0  351   [8]  00 00 00 00 00 00 00 00
  can0  42B   [6]  16 01 00 00 00 00
  can0  359   [8]  20 01 00 00 00 6B 40 88
  can0  5B5   [8]  02 0D 00 00 00 00 00 0F
  can0  3E1   [8]  20 8B 1C 02 58 00 81 00
  can0  523   [8]  FA 80 00 00 00 00 00 00
  can0  365   [8]  41 0E 04 72 0F 09 04 20
  can0  527   [8]  10 01 00 40 7D 8A 8B 00
  can0  3E3   [8]  19 11 95 00 00 79 00 00
  can0  6C1   [1]  A3
  can0  2C3   [1]  07
  can0  6C0   [6]  A1 0F 8A FF 4A FF
  can0  470   [8]  80 00 01 3A 20 00 00 00
  can0  531   [4]  00 A0 60 C0
  can0  571   [6]  89 5F 00 0B 04 00
  can0  575   [4]  C7 02 00 80
  can0  436   [6]  0B 01 00 00 00 00
  can0  151   [4]  00 A4 E8 4C
  can0  2C1   [5]  00 00 80 00 02
  can0  35B   [8]  08 00 00 50 20 18 00 00
  can0  655   [8]  F7 02 60 0F 1E 00 00 DA
  can0  621   [7]  20 04 24 0B 01 25 23
  can0  6C2   [6]  A0 0F 8A FF 4A FF
  can0  3C3   [8]  22 00 00 00 80 80 A7 5D
  can0  635   [3]  25 00 23
  can0  555   [8]  E0 00 6A 00 2A 00 00 48
  can0  651   [8]  C0 13 54 8F 36 55 C0 00
  can0  470   [8]  80 00 01 3A 20 00 00 00
  can0  531   [4]  00 A0 70 D0
  can0  42B   [6]  16 01 00 00 00 00
  can0  65F   [8]  00 00 00 00 00 54 52 55
  can0  658   [8]  70 00 00 0E 40 00 00 00
  can0  363   [8]  55 10 65 01 0E 04 65 44
  can0  58C   [8]  00 00 2E 00 00 00 00 00
  can0  351   [8]  00 00 00 00 00 00 00 00
  can0  627   [8]  00 39 39 28 28 3B 3B 28
  can0  359   [8]  20 01 00 00 00 6B 40 88
  can0  3E1   [8]  20 8B 1D 02 58 00 81 00
  can0  365   [8]  41 0E 04 72 0F 09 04 20
  can0  60E   [2]  C7 00
  can0  2C3   [1]  07
  can0  436   [6]  0B 01 00 00 00 00
  can0  470   [8]  80 00 01 3A 20 00 00 00
  can0  531   [4]  00 A0 80 20
  can0  151   [4]  00 A4 38 9C
  can0  2C1   [5]  00 00 80 00 02
  can0  35B   [8]  08 00 00 50 20 18 00 00
  can0  653   [3]  82 02 84
  can0  621   [7]  20 04 24 0B 01 25 23
  can0  6C2   [6]  A0 0F 8A FF 4A FF
  can0  3C3   [8]  22 00 00 00 80 20 EA BD
  can0  42B   [6]  16 01 00 00 00 00
  can0  555   [8]  E0 00 6A 00 2A 00 00 48
  can0  651   [8]  C0 13 54 8F 36 55 C0 00
  can0  470   [8]  80 00 01 3A 20 00 00 00
  can0  531   [4]  00 A0 90 30
  can0  658   [8]  70 00 00 0E 40 00 00 00
  can0  58C   [8]  00 00 2E 00 00 00 00 00
  can0  363   [8]  55 10 65 01 0E 04 65 44
  can0  351   [8]  00 00 00 00 00 00 00 00
  can0  359   [8]  20 01 00 00 00 6B 40 88
  can0  3E1   [8]  20 8B 1D 02 58 00 81 00
  can0  5B5   [8]  08 07 00 00 00 00 00 0F
  can0  523   [8]  FA 80 00 00 00 00 00 00
  can0  365   [8]  41 0E 04 72 0F 09 04 20
  can0  527   [8]  10 01 00 40 7D 8A 8B 00
  can0  436   [6]  0B 01 00 00 00 00
  can0  2C3   [1]  07
  can0  470   [8]  80 00 01 3A 20 00 00 00
  can0  531   [4]  00 A0 A0 00
  can0  575   [4]  C7 02 00 80
  can0  151   [4]  00 A4 88 2C
  can0  2C1   [5]  00 00 80 00 02
  can0  35B   [8]  08 00 00 50 20 18 00 00
  can0  623   [8]  00 13 55 45 28 03 20 26
  can0  42B   [6]  16 01 00 00 00 00
  can0  621   [7]  20 04 24 0B 01 25 23
  can0  6C2   [6]  A0 0F 8A FF 4A FF
  can0  3C3   [8]  22 00 00 00 80 C0 33 1D
  can0  635   [3]  25 00 23
  can0  555   [8]  E0 00 6A 00 2A 00 00 48
  can0  651   [8]  C0 13 54 8F 36 55 C0 00
  can0  470   [8]  80 00 01 3A 20 00 00 00
  can0  531   [4]  00 A0 B0 10
  can0  65F   [8]  01 46 46 41 46 4B 34 41
  can0  658   [8]  70 00 00 0E 40 00 00 00
  can0  363   [8]  10 65 01 0E 04 65 44 01
  can0  58C   [8]  00 00 2E 00 00 00 00 00
  can0  351   [8]  00 00 00 00 00 00 00 00
  can0  359   [8]  20 01 00 00 00 6B 40 88
  can0  3E1   [8]  20 8B 1D 02 58 00 81 00
  can0  5C3   [2]  39 00
  can0  436   [6]  0B 01 00 00 00 00
  can0  365   [8]  41 0E 04 72 0F 09 04 20
  can0  2C3   [1]  07
  can0  470   [8]  80 00 01 3A 20 00 00 00
  can0  531   [4]  00 A0 C0 60
  can0  42B   [6]  16 01 00 00 00 00
  can0  151   [4]  00 A4 D8 7C
  can0  2C1   [5]  00 00 80 00 02
  can0  35B   [8]  08 00 00 50 20 18 00 00
  can0  65D   [8]  54 1B A4 A3 19 DE 6E 17
  can0  621   [7]  20 04 24 0B 01 25 23
  can0  6C2   [6]  A0 0F 8A FF 4A FF
  can0  3C3   [8]  22 00 00 00 80 60 7E 7D
  can0  555   [8]  E0 00 6A 00 2A 00 00 48
  can0  651   [8]  C0 13 54 8F 36 55 C0 00
  can0  470   [8]  80 00 01 3A 20 00 00 00
  can0  531   [4]  00 A0 D0 70
  can0  658   [8]  70 00 00 0E 40 00 00 00
  can0  363   [8]  10 65 01 0E 04 65 44 01
  can0  58C   [8]  00 00 2E 00 00 00 00 00
  can0  351   [8]  00 00 00 00 00 00 00 00
  can0  359   [8]  20 01 00 00 00 6B 40 88
  can0  3E1   [8]  20 8B 1D 02 58 00 81 00
  can0  436   [6]  0B 01 00 00 00 00
  can0  5B5   [8]  0E 01 00 00 00 00 00 0F
  can0  523   [8]  FA 80 00 00 00 00 00 00
  can0  365   [8]  41 0E 04 72 0F 09 04 20
  can0  527   [8]  10 01 00 40 7D 8A 8B 00
  can0  2C3   [1]  07
  can0  470   [8]  80 00 01 3A 20 00 00 00
  can0  531   [4]  00 A0 E0 40
  can0  575   [4]  C7 02 00 80
  can0  42B   [6]  16 01 00 00 00 00
  can0  151   [4]  00 A4 28 8C
  can0  2C1   [5]  00 00 80 00 02
  can0  35B   [8]  08 00 00 50 20 18 00 00
  can0  557   [8]  60 00 00 00 1C 00 00 48
  can0  621   [7]  20 04 24 0B 01 25 23
  can0  6C2   [6]  A0 0F 8A FF 4A FF
  can0  3C3   [8]  22 00 00 00 80 00 A0 DD
  can0  635   [3]  25 00 23
  can0  555   [8]  E0 00 6A 00 2A 00 00 48
  can0  651   [8]  C0 13 54 8F 36 55 C0 00
  can0  470   [8]  80 00 01 3A 20 00 00 00
  can0  531   [4]  00 A0 F0 50
  can0  65F   [8]  02 31 30 31 39 36 31 33
  can0  658   [8]  70 00 00 0E 40 00 00 00
  can0  363   [8]  10 65 01 0E 04 65 44 01
  can0  436   [6]  0B 01 00 00 00 00
  can0  58C   [8]  00 00 2E 00 00 00 00 00
  can0  351   [8]  00 00 00 00 00 00 00 00
  can0  359   [8]  20 01 00 00 00 6B 40 88
  can0  3E1   [8]  20 8B 1D 02 58 00 81 00
  can0  363   [8]  20 41 56 20 20 20 20 20
  can0  365   [8]  54 56 2F 56 49 44 45 4F
  can0  363   [8]  10 65 01 0E 04 65 44 01
  can0  604   [8]  81 00 00 00 00 00 00 00
  can0  363   [8]  10 65 01 0E 04 65 44 01
  can0  661   [8]  83 01 12 37 00 00 00 00
  can0  363   [8]  10 65 01 0E 04 65 44 01
  can0  365   [8]  41 0E 04 72 0F 09 04 20
  can0  365   [8]  41 0E 04 72 0F 09 04 20
  can0  365   [8]  41 0E 04 72 0F 09 04 20
  can0  363   [8]  10 65 01 0E 04 65 44 01
  can0  365   [8]  41 0E 04 72 0F 09 04 20
  can0  2C3   [1]  07
  can0  470   [8]  80 00 01 3A 20 00 00 00
  can0  42B   [6]  16 01 00 00 00 00
  can0  531   [4]  00 A0 00 A0
  can0  571   [6]  89 5F 00 0B 04 00
  can0  151   [4]  00 A4 78 DC
  can0  2C1   [5]  00 00 80 00 02
  can0  35B   [8]  08 00 00 50 20 18 00 00
  can0  655   [8]  F7 02 60 0F 1E 00 00 DA
  can0  621   [7]  20 04 24 0B 01 25 23
  can0  6C2   [6]  A0 0F 8A FF 4A FF
  can0  3C3   [8]  22 00 00 00 80 A0 ED 3D
  can0  555   [8]  E0 00 6A 00 2A 00 00 48
  can0  436   [6]  0B 01 00 00 00 00
  can0  651   [8]  C0 13 54 8F 36 55 C0 00
  can0  470   [8]  80 00 01 3A 20 00 00 00
  can0  531   [4]  00 A0 10 B0
  can0  658   [8]  70 00 00 0E 40 00 00 00
  can0  58C   [8]  00 00 2E 00 00 00 00 00
  can0  351   [8]  00 00 00 00 00 00 00 00
  can0  627   [8]  00 39 39 28 28 3B 3B 28
  can0  359   [8]  20 01 00 00 00 6B 40 88
  can0  3E1   [8]  20 8B 1C 02 58 00 81 00
  can0  5B5   [8]  04 0B 00 00 00 00 00 0F
  can0  363   [8]  10 65 01 0E 04 65 44 01
  can0  523   [8]  FA 80 00 00 00 00 00 00
  can0  365   [8]  41 0E 04 72 0F 09 04 20
  can0  527   [8]  10 01 00 40 7D 8A 8B 00
  can0  575   [4]  C7 02 00 C0
  can0  42B   [6]  16 01 00 00 00 00
  can0  2C3   [1]  07
  can0  470   [8]  80 00 01 3A 20 00 00 00
  can0  531   [4]  00 A0 20 80
  can0  575   [4]  C7 02 00 C0
  can0  151   [4]  00 A4 C8 6C
  can0  2C1   [5]  00 00 80 00 02
  can0  35B   [8]  08 00 00 50 20 18 00 00
  can0  653   [3]  82 02 84
  can0  621   [7]  20 04 24 0B 01 25 23
  can0  436   [6]  0B 01 00 00 00 00
  can0  6C2   [6]  A0 0F 8A FF 4A FF
  can0  3C3   [8]  22 00 00 00 80 40 34 9D
  can0  635   [3]  25 00 23
  can0  555   [8]  E0 00 6A 00 2A 00 00 48
  can0  651   [8]  C0 13 54 8F 36 55 C0 00
  can0  470   [8]  80 00 01 3A 20 00 00 00
  can0  531   [4]  00 A0 30 90
  can0  65F   [8]  00 00 00 00 00 54 52 55
  can0  658   [8]  70 00 00 0E 40 00 00 00
  can0  363   [8]  65 01 0E 04 65 44 01 0E
  can0  58C   [8]  00 00 2E 00 00 00 00 00
  can0  351   [8]  00 00 00 00 00 00 00 00
  can0  359   [8]  20 01 00 00 00 6B 40 88
  can0  3E1   [8]  20 8B 1D 02 58 00 81 00
  can0  365   [8]  41 0E 04 72 0F 09 04 20
  can0  42B   [6]  16 01 00 00 00 00
  can0  2C3   [1]  07
  can0  470   [8]  80 00 01 3A 20 00 00 00
  can0  531   [4]  00 A0 40 E0
  can0  151   [4]  00 A4 18 BC
  can0  2C1   [5]  00 00 80 00 02
  can0  436   [6]  0B 01 00 00 00 00
  can0  35B   [8]  08 00 00 50 20 18 00 00
  can0  621   [7]  20 04 24 0B 01 25 23
  can0  6C2   [6]  A0 0F 8A FF 4A FF
  can0  3C3   [8]  22 00 00 00 80 E0 79 FD
  can0  555   [8]  E0 00 6A 00 2A 00 00 48
  can0  6DB   [3]  30 4F 00
  can0  651   [8]  C0 13 54 8F 36 55 C0 00
  can0  470   [8]  80 00 01 3A 20 00 00 00
  can0  531   [4]  00 A0 50 F0
  can0  658   [8]  70 00 00 0E 40 00 00 00
  can0  363   [8]  65 01 0E 04 65 44 01 0E
  can0  58C   [8]  00 00 2E 00 00 00 00 00
  can0  351   [8]  00 00 00 00 00 00 00 00
  can0  359   [8]  20 01 00 00 00 6B 40 88
  can0  3E1   [8]  20 8B 1D 02 58 00 81 00
  can0  5B5   [8]  0A 05 00 00 00 00 00 0F
  can0  42B   [6]  16 01 00 00 00 00
  can0  523   [8]  FA 80 00 00 00 00 00 00
  can0  3E3   [8]  19 11 95 00 00 79 00 00
  can0  365   [8]  41 0E 04 72 0F 09 04 20
  can0  5C3   [2]  39 00
  can0  527   [8]  10 01 00 40 7D 8A 8B 00
  can0  2C3   [1]  07
  can0  470   [8]  80 00 01 3A 20 00 00 00
  can0  531   [4]  00 A0 60 C0
  can0  575   [4]  C7 02 00 C0
  can0  436   [6]  0B 01 00 00 00 00
  can0  151   [4]  00 A4 68 CC
  can0  2C1   [5]  00 00 80 00 02
  can0  35B   [8]  08 00 00 50 20 18 00 00
  can0  621   [7]  20 04 24 0B 01 25 23
  can0  6C2   [6]  A0 0F 8A FF 4A FF
  can0  3C3   [8]  22 00 00 00 80 80 A7 5D
  can0  635   [3]  25 00 23
  can0  555   [8]  E0 00 6A 00 2A 00 00 48
  can0  651   [8]  C0 13 54 8F 36 55 C0 00
  can0  470   [8]  80 00 01 3A 20 00 00 00
  can0  531   [4]  00 A0 70 D0
  can0  65F   [8]  01 46 46 41 46 4B 34 41
  can0  658   [8]  70 00 00 0E 40 00 00 00
  can0  58C   [8]  00 00 2E 00 00 00 00 00
  can0  363   [8]  65 01 0E 04 65 44 01 0E
  can0  351   [8]  00 00 00 00 00 00 00 00
  can0  42B   [6]  16 01 00 00 00 00
  can0  359   [8]  20 01 00 00 00 6B 40 88
  can0  3E1   [8]  20 8B 1D 02 58 00 81 00
  can0  365   [8]  41 0E 04 72 0F 09 04 20
  can0  2C3   [1]  07
  can0  470   [8]  80 00 01 3A 20 00 00 00
  can0  531   [4]  00 A0 80 20
  can0  436   [6]  0B 01 00 00 00 00
  can0  151   [4]  00 A4 B8 1C
  can0  2C1   [5]  00 00 80 00 02
  can0  35B   [8]  08 00 00 50 20 18 00 00
  can0  557   [8]  60 00 00 00 1C 00 00 48
  can0  621   [7]  20 04 24 0B 01 25 23
  can0  6C2   [1]  A8
  can0  3C3   [8]  22 00 00 00 80 20 EA BD
  can0  555   [8]  E0 00 6A 00 2A 00 00 48
  can0  651   [8]  C0 13 54 8F 36 55 C0 00
  can0  42B   [6]  16 01 00 00 00 00
  can0  470   [8]  80 00 01 3A 20 00 00 00
  can0  531   [4]  00 A0 90 30
  can0  658   [8]  70 00 00 0E 40 00 00 00
  can0  58C   [8]  00 00 2E 00 00 00 00 00
  can0  351   [8]  00 00 00 00 00 00 00 00
  can0  363   [8]  65 01 0E 04 65 44 01 0E
  can0  3E1   [8]  20 8B 1D 02 58 00 81 00
  can0  359   [8]  20 01 00 00 00 6B 40 88
  can0  5B5   [8]  00 0F 00 00 00 00 00 0F
  can0  523   [8]  FA 80 00 00 00 00 00 00
  can0  527   [8]  10 01 00 40 7D 8A 8B 00
  can0  365   [8]  41 0E 04 72 0F 09 04 20
  can0  6C1   [1]  A3
  can0  2C3   [1]  07
  can0  6C0   [6]  A1 0F 8A FF 4A FF
  can0  436   [6]  0B 01 00 00 00 00
  can0  470   [8]  80 00 01 3A 20 00 00 00
  can0  531   [4]  00 A0 A0 00
  can0  571   [6]  89 5F 00 0B 04 00
  can0  575   [4]  C7 02 00 C0
  can0  151   [4]  00 A4 08 AC
  can0  2C1   [5]  00 00 80 00 02
  can0  35B   [8]  08 00 00 50 20 18 00 00
  can0  655   [8]  F7 02 60 0F 1E 00 00 DA
  can0  621   [7]  20 04 24 0B 01 25 23
  can0  3C3   [8]  22 00 00 00 80 C0 33 1D
  can0  42B   [6]  16 01 00 00 00 00
  can0  635   [3]  25 00 23
  can0  555   [8]  E0 00 6A 00 2A 00 00 48
  can0  6C2   [6]  A0 0F 8A FF 4A FF
  can0  651   [8]  C0 13 54 8F 36 55 C0 00
  can0  470   [8]  80 00 01 3A 20 00 00 00
  can0  531   [4]  00 A0 B0 10
  can0  65F   [8]  02 31 30 31 39 36 31 33
  can0  658   [8]  70 00 00 0E 40 00 00 00
  can0  363   [8]  01 0E 04 65 44 01 0E 03
  can0  58C   [8]  00 00 2E 00 00 00 00 00
  can0  351   [8]  00 00 00 00 00 00 00 00
  can0  627   [8]  00 39 39 28 28 3B 3B 28
  can0  3E1   [8]  20 8B 1D 02 58 00 81 00
  can0  359   [8]  20 01 00 00 00 6B 40 88
  can0  60E   [2]  C7 00
  can0  365   [8]  41 0E 04 72 0F 09 04 20
  can0  436   [6]  0B 01 00 00 00 00
  can0  2C3   [1]  07
  can0  470   [8]  80 00 01 3A 20 00 00 00
  can0  531   [4]  00 A0 C0 60
  can0  151   [4]  00 A4 58 FC
  can0  2C1   [5]  00 00 80 00 02
  can0  35B   [8]  08 00 00 50 20 18 00 00
  can0  653   [3]  82 02 84
  can0  42B   [6]  16 01 00 00 00 00
  can0  621   [7]  20 04 24 0B 01 25 23
  can0  3C3   [8]  22 00 00 00 80 60 7E 7D
  can0  555   [8]  E0 00 6A 00 2A 00 00 48
  can0  6C2   [6]  A0 0F 8A FF 4A FF
  can0  651   [8]  C0 13 54 8F 36 55 C0 00
  can0  470   [8]  80 00 01 3A 20 00 00 00
  can0  531   [4]  00 A0 D0 70
  can0  658   [8]  70 00 00 0E 40 00 00 00
  can0  363   [8]  01 0E 04 65 44 01 0E 03
  can0  58C   [8]  00 00 2E 00 00 00 00 00
  can0  351   [8]  00 00 00 00 00 00 00 00
  can0  3E1   [8]  20 8B 1D 02 58 00 81 00
  can0  359   [8]  20 01 00 00 00 6B 40 88
  can0  5B5   [8]  06 09 00 00 00 00 00 0F
  can0  523   [8]  FA 80 00 00 00 00 00 00
  can0  436   [6]  0B 01 00 00 00 00
  can0  527   [8]  10 01 00 40 7D 8A 8B 00
  can0  365   [8]  41 0E 04 72 0F 09 04 20
  can0  2C3   [1]  07
  can0  470   [8]  80 00 01 3A 20 00 00 00
  can0  531   [4]  00 A0 E0 40
  can0  575   [4]  C7 02 00 C0
  can0  42B   [6]  16 01 00 00 00 00
  can0  151   [4]  00 A4 A8 0C
  can0  2C1   [5]  00 00 80 00 02
  can0  35B   [8]  08 00 00 50 20 18 00 00
  can0  623   [8]  00 13 55 46 28 03 20 26
  can0  621   [7]  20 04 24 0B 01 25 23
  can0  3C3   [8]  22 00 00 00 80 00 A0 DD
  can0  635   [3]  25 00 23
  can0  555   [8]  E0 00 6A 00 2A 00 00 48
  can0  6C2   [6]  A0 0F 8A FF 4A FF
  can0  651   [8]  C0 13 54 8F 36 55 C0 00
  can0  470   [8]  80 00 01 3A 20 00 00 00
  can0  531   [4]  00 A0 F0 50
  can0  65F   [8]  00 00 00 00 00 54 52 55
  can0  658   [8]  70 00 00 0E 40 00 00 00
  can0  58C   [8]  00 00 2E 00 00 00 00 00
  can0  363   [8]  01 0E 04 65 44 01 0E 03
  can0  351   [8]  00 00 00 00 00 00 00 00
  can0  3E1   [8]  20 8B 1D 02 58 00 81 00
  can0  359   [8]  20 01 00 00 00 6B 40 88
  can0  436   [6]  0B 01 00 00 00 00
  can0  363   [8]  20 41 56 20 20 20 20 20
  can0  365   [8]  54 56 2F 56 49 44 45 4F
  can0  363   [8]  01 0E 04 65 44 01 0E 03
  can0  363   [8]  01 0E 04 65 44 01 0E 03
  can0  363   [8]  01 0E 04 65 44 01 0E 03
  can0  365   [8]  41 0E 04 72 0F 09 04 20
  can0  5C3   [2]  39 00
  can0  365   [8]  41 0E 04 72 0F 09 04 20
  can0  365   [8]  41 0E 04 72 0F 09 04 20
  can0  363   [8]  01 0E 04 65 44 01 0E 03
  can0  365   [8]  41 0E 04 72 0F 09 04 20
  can0  2C3   [1]  07
  can0  470   [8]  80 00 01 3A 20 00 00 00
  can0  531   [4]  00 A0 00 A0
  can0  42B   [6]  16 01 00 00 00 00
  can0  151   [4]  00 A4 F8 5C
  can0  2C1   [5]  00 00 80 00 02
  can0  35B   [8]  08 00 00 50 20 18 00 00
  can0  65D   [8]  54 1B A4 A3 19 DE EE 17
  can0  621   [7]  20 04 24 0B 01 25 23
  can0  3C3   [8]  22 00 00 00 80 A0 ED 3D
  can0  555   [8]  E0 00 6A 00 2A 00 00 48
  can0  651   [8]  C0 13 54 8F 36 55 C0 00
  can0  6C2   [6]  A0 0F 8A FF 4A FF
  can0  470   [8]  80 00 01 3A 20 00 00 00
  can0  531   [4]  00 A0 10 B0
  can0  658   [8]  70 00 00 0E 40 00 00 00
  can0  58C   [8]  00 00 2E 00 00 00 00 00
  can0  351   [8]  00 00 00 00 00 00 00 00
  can0  436   [6]  0B 01 00 00 00 00
  can0  3E1   [8]  20 8B 1D 02 58 00 81 00
  can0  359   [8]  20 01 00 00 00 6B 40 88
  can0  5B5   [8]  0C 03 00 00 00 00 00 0F
  can0  523   [8]  FA 80 00 00 00 00 00 00
  can0  363   [8]  01 0E 04 65 44 01 0E 03
  can0  365   [8]  41 0E 04 72 0F 09 04 20
  can0  527   [8]  10 01 00 40 7D 8A 8B 00
  can0  575   [4]  C7 02 00 80
  can0  2C3   [1]  07
  can0  470   [8]  80 00 01 3A 20 00 00 00
  can0  42B   [6]  16 01 00 00 00 00
  can0  531   [4]  00 A0 20 80
  can0  575   [4]  C7 02 00 80
  can0  151   [4]  00 A4 48 EC
  can0  2C1   [5]  00 00 80 00 02
  can0  35B   [8]  08 00 00 50 20 18 00 00
  can0  557   [8]  60 00 00 00 1C 00 00 48
  can0  621   [7]  20 04 24 0B 01 25 23
  can0  3C3   [8]  22 00 00 00 80 40 34 9D
  can0  635   [3]  25 00 23
  can0  555   [8]  E0 00 6A 00 2A 00 00 48
  can0  651   [8]  C0 13 54 8F 36 55 C0 00
  can0  436   [6]  0B 01 00 00 00 00
  can0  6C2   [6]  A0 0F 8A FF 4A FF
  can0  470   [8]  80 00 01 3A 20 00 00 00
  can0  531   [4]  00 A0 30 90
  can0  65F   [8]  01 46 46 41 46 4B 34 41
  can0  658   [8]  70 00 00 0E 40 00 00 00
  can0  363   [8]  0E 04 65 44 01 0E 03 05
  can0  58C   [8]  00 00 2E 00 00 00 00 00
  can0  351   [8]  00 00 00 00 00 00 00 00
  can0  3E1   [8]  20 8B 1D 02 58 00 81 00
  can0  359   [8]  20 01 00 00 00 6B 40 88
  can0  604   [8]  81 00 00 00 00 00 00 00
  can0  661   [8]  83 01 12 37 00 00 00 00
  can0  365   [8]  41 0E 04 72 0F 09 04 20
  can0  42B   [6]  16 01 00 00 00 00
  can0  2C3   [1]  07
  can0  470   [8]  80 00 01 3A 20 00 00 00
  can0  531   [4]  00 A0 40 E0
  can0  571   [6]  8A 5F 00 0B 04 00
  can0  151   [4]  00 A4 98 3C
  can0  2C1   [5]  00 00 80 00 02
  can0  35B   [8]  08 00 00 50 20 18 00 00
  can0  655   [8]  F7 02 60 0F 1E 00 00 DA
  can0  621   [7]  20 04 24 0B 01 25 23
  can0  3C3   [8]  22 00 00 00 80 E0 79 FD
  can0  436   [6]  0B 01 00 00 00 00
  can0  555   [8]  E0 00 6A 00 2A 00 00 48
  can0  651   [8]  C0 13 54 8F 36 55 C0 00
  can0  6C2   [6]  A0 0F 8A FF 4A FF
  can0  470   [8]  80 00 01 3A 20 00 00 00
  can0  531   [4]  00 A0 50 F0
  can0  658   [8]  70 00 00 0E 40 00 00 00
  can0  363   [8]  0E 04 65 44 01 0E 03 05
  can0  58C   [8]  00 00 2E 00 00 00 00 00
  can0  351   [8]  00 00 00 00 00 00 00 00
  can0  3E1   [8]  20 8B 1D 02 58 00 81 00
  can0  627   [8]  00 39 39 28 28 3B 3B 28
  can0  359   [8]  20 01 00 00 00 6B 40 88
  can0  5B5   [8]  02 0D 00 00 00 00 00 0F
  can0  3E3   [8]  19 11 95 00 00 79 00 00
  can0  523   [8]  FA 80 00 00 00 00 00 00
  can0  527   [8]  10 01 00 40 7D 8A 8B 00
  can0  365   [8]  41 0E 04 72 0F 09 04 20
  can0  42B   [6]  16 01 00 00 00 00
  can0  2C3   [1]  07
  can0  470   [8]  80 00 01 3A 20 00 00 00
  can0  531   [4]  00 A0 60 C0
  can0  575   [4]  C7 02 00 80
  can0  151   [4]  00 A4 E8 4C
  can0  2C1   [5]  00 00 80 00 02
  can0  35B   [8]  08 00 00 50 20 18 00 00
  can0  436   [6]  0B 01 00 00 00 00
  can0  653   [3]  82 02 84
  can0  621   [7]  20 04 24 0B 01 25 23
  can0  3C3   [8]  22 00 00 00 80 80 A7 5D
  can0  635   [3]  25 00 23
  can0  555   [8]  E0 00 6A 00 2A 00 00 48
  can0  651   [8]  C0 13 54 8F 36 55 C0 00
  can0  6C2   [6]  A0 0F 8A FF 4A FF
  can0  470   [8]  80 00 01 3A 20 00 00 00
  can0  531   [4]  00 A0 70 D0
  can0  65F   [8]  02 31 30 31 39 36 31 33
  can0  658   [8]  70 00 00 0E 40 00 00 00
  can0  58C   [8]  00 00 2E 00 00 00 00 00
  can0  363   [8]  0E 04 65 44 01 0E 03 05
  can0  351   [8]  00 00 00 00 00 00 00 00
  can0  3E1   [8]  20 8B 1D 02 58 00 81 00
  can0  359   [8]  20 01 00 00 00 6B 40 88
  can0  42B   [6]  16 01 00 00 00 00
  can0  365   [8]  41 0E 04 72 0F 09 04 20
  can0  2C3   [1]  07
  can0  470   [8]  80 00 01 3A 20 00 00 00
  can0  531   [4]  00 A0 80 20
  can0  436   [6]  0B 01 00 00 00 00
  can0  151   [4]  00 A4 38 9C
  can0  2C1   [5]  00 00 80 00 02
  can0  35B   [8]  08 00 00 50 20 18 00 00
  can0  621   [7]  20 04 24 0B 01 25 23
  can0  6DB   [4]  30 5B 54 01
  can0  3C3   [8]  22 00 00 00 80 20 EA BD
  can0  555   [8]  E0 00 6A 00 2A 00 00 48
  can0  651   [8]  C0 13 54 8F 36 55 C0 00
  can0  6C2   [6]  A0 0F 8A FF 4A FF
  can0  470   [8]  80 00 01 3A 20 00 00 00
  can0  531   [4]  00 A0 90 30
  can0  658   [8]  70 00 00 0E 40 00 00 00
  can0  58C   [8]  00 00 2E 00 00 00 00 00
  can0  351   [8]  00 00 00 00 00 00 00 00
  can0  3E1   [8]  20 8B 1D 02 58 00 81 00
  can0  363   [8]  0E 04 65 44 01 0E 03 05
  can0  42B   [6]  16 01 00 00 00 00
  can0  359   [8]  20 01 00 00 00 6B 40 88
  can0  5B5   [8]  08 07 00 00 00 00 00 0F
  can0  523   [8]  FA 80 00 00 00 00 00 00
  can0  5C3   [2]  39 00
  can0  527   [8]  10 01 00 40 7D 8A 8B 00
  can0  365   [8]  41 0E 04 72 0F 09 04 20
  can0  2C3   [1]  07
  can0  470   [8]  80 00 01 3A 20 00 00 00
  can0  531   [4]  00 A0 A0 00
  can0  575   [4]  C7 02 00 80
  can0  436   [6]  0B 01 00 00 00 00
  can0  151   [4]  00 A4 88 2C
  can0  2C1   [5]  00 00 80 00 02
  can0  35B   [8]  08 00 00 50 20 18 00 00
  can0  621   [7]  20 04 24 0B 01 25 23
  can0  3C3   [8]  22 00 00 00 80 C0 33 1D
  can0  635   [3]  25 00 23
  can0  555   [8]  E0 00 6A 00 2A 00 00 48
  can0  651   [8]  C0 13 54 8F 36 55 C0 00
  can0  6C2   [6]  A0 0F 8A FF 4A FF
  can0  470   [8]  80 00 01 3A 20 00 00 00
  can0  531   [4]  00 A0 B0 10
  can0  42B   [6]  16 01 00 00 00 00
  can0  65F   [8]  00 00 00 00 00 54 52 55
  can0  658   [8]  70 00 00 0E 40 00 00 00
  can0  363   [8]  04 65 44 01 0E 03 05 65
  can0  58C   [8]  00 00 2E 00 00 00 00 00
  can0  3E1   [8]  20 8B 1D 02 58 00 81 00
  can0  351   [8]  00 00 00 00 00 00 00 00
  can0  359   [8]  20 01 00 00 00 6B 40 88
  can0  365   [8]  41 0E 04 72 0F 09 04 20
  can0  2C3   [1]  07
  can0  436   [6]  0B 01 00 00 00 00
  can0  470   [8]  80 00 01 3A 20 00 00 00
  can0  531   [4]  00 A0 C0 60
  can0  151   [4]  00 A4 D8 7C
  can0  2C1   [5]  00 00 80 00 02
  can0  35B   [8]  08 00 00 50 20 18 00 00
  can0  557   [8]  60 00 00 00 1C 00 00 48
  can0  621   [7]  20 04 24 0B 01 25 23
  can0  3C3   [8]  22 00 00 00 80 60 7E 7D
  can0  42B   [6]  16 01 00 00 00 00
  can0  555   [8]  E0 00 6A 00 2A 00 00 48
  can0  651   [8]  C0 13 54 8F 36 55 C0 00
  can0  6C2   [6]  A0 0F 8A FF 4A FF
  can0  470   [8]  80 00 01 3A 20 00 00 00
  can0  531   [4]  00 A0 D0 70
  can0  658   [8]  70 00 00 0E 40 00 00 00
  can0  58C   [8]  00 00 2E 00 00 00 00 00
  can0  3E1   [8]  20 8B 1D 02 58 00 81 00
  can0  351   [8]  00 00 00 00 00 00 00 00
  can0  363   [8]  04 65 44 01 0E 03 05 65
  can0  359   [8]  20 01 00 00 00 6B 40 88
  can0  5B5   [8]  0E 01 00 00 00 00 00 0F
  can0  523   [8]  FA 80 00 00 00 00 00 00
  can0  527   [8]  10 01 00 40 7D 8A 8B 00
  can0  365   [8]  41 0E 04 72 0F 09 04 20
  can0  436   [6]  0B 01 00 00 00 00
  can0  6C1   [1]  A3
  can0  2C3   [1]  07
  can0  6C0   [6]  A1 0F 8A FF 4A FF
  can0  470   [8]  80 00 01 3A 20 00 00 00
  can0  531   [4]  00 A0 E0 40
  can0  571   [6]  89 5F 00 0B 04 00
  can0  575   [4]  C7 02 00 80
  can0  151   [4]  00 A4 28 8C
  can0  2C1   [5]  00 00 80 00 02
  can0  35B   [8]  08 00 00 50 20 18 00 00
  can0  655   [8]  F7 02 60 0F 1E 00 00 DA
  can0  621   [7]  20 04 24 0B 01 25 23
  can0  3C3   [8]  22 00 00 00 80 00 A0 DD
  can0  42B   [6]  16 01 00 00 00 00
  can0  635   [3]  25 00 23
  can0  555   [8]  E0 00 6A 00 2A 00 00 48
  can0  651   [8]  C0 13 54 8F 36 55 C0 00
  can0  6C2   [6]  A0 0F 8A FF 4A FF
  can0  470   [8]  80 00 01 3A 20 00 00 00
  can0  531   [4]  00 A0 F0 50
  can0  65F   [8]  01 46 46 41 46 4B 34 41
  can0  658   [8]  70 00 00 0E 40 00 00 00
  can0  58C   [8]  00 00 2E 00 00 00 00 00
  can0  3E1   [8]  20 8B 1D 02 58 00 81 00
  can0  351   [8]  00 00 00 00 00 00 00 00
  can0  363   [8]  04 65 44 01 0E 03 05 65
  can0  627   [8]  00 39 39 28 28 3B 3B 28
  can0  359   [8]  20 01 00 00 00 6B 40 88
  can0  363   [8]  20 41 56 20 20 20 20 20
  can0  365   [8]  54 56 2F 56 49 44 45 4F
  can0  363   [8]  04 65 44 01 0E 03 05 65
  can0  363   [8]  04 65 44 01 0E 03 05 65
  can0  363   [8]  04 65 44 01 0E 03 05 65
  can0  365   [8]  41 0E 04 72 0F 09 04 20
  can0  365   [8]  41 0E 04 72 0F 09 04 20
  can0  365   [8]  41 0E 04 72 0F 09 04 20
  can0  365   [8]  41 0E 04 72 0F 09 04 20
  can0  363   [8]  04 65 44 01 0E 03 05 65
  can0  60E   [2]  C7 00
  can0  436   [6]  0B 01 00 00 00 00
  can0  2C3   [1]  07
  can0  470   [8]  80 00 01 3A 20 00 00 00
  can0  531   [4]  00 A0 00 A0
  can0  151   [4]  00 A4 78 DC
  can0  2C1   [5]  00 00 80 00 02
  can0  35B   [8]  08 00 00 50 20 18 00 00
  can0  653   [3]  82 02 84
  can0  42B   [6]  16 01 00 00 00 00
  can0  621   [7]  20 04 24 0B 01 25 23
  can0  3C3   [8]  22 00 00 00 80 A0 ED 3D
  can0  555   [8]  E0 00 6A 00 2A 00 00 48
  can0  651   [8]  C0 13 54 8F 36 55 C0 00
  can0  6C2   [1]  A8
  can0  470   [8]  80 00 01 3A 20 00 00 00
  can0  531   [4]  00 A0 10 B0
  can0  658   [8]  70 00 00 0E 40 00 00 00
  can0  3E1   [8]  20 8B 1D 02 58 00 81 00
  can0  58C   [8]  00 00 2E 00 00 00 00 00
  can0  351   [8]  00 00 00 00 00 00 00 00
  can0  359   [8]  20 01 00 00 00 6B 40 88
  can0  5B5   [8]  04 0B 00 00 00 00 00 0F
  can0  523   [8]  FA 80 00 00 00 00 00 00
  can0  365   [8]  41 0E 04 72 0F 09 04 20
  can0  527   [8]  10 01 00 40 7D 8A 8B 00
  can0  363   [8]  04 65 44 01 0E 03 05 65
  can0  436   [6]  0B 01 00 00 00 00
  can0  575   [4]  C7 02 00 C0
  can0  2C3   [1]  07
  can0  470   [8]  80 00 01 3A 20 00 00 00
  can0  531   [4]  00 A0 20 80
  can0  575   [4]  C7 02 00 C0
  can0  151   [4]  00 A4 C8 6C
  can0  2C1   [5]  00 00 80 00 02
  can0  35B   [8]  08 00 00 50 20 18 00 00
  can0  623   [8]  00 13 55 47 28 03 20 26
  can0  42B   [6]  16 01 00 00 00 00
  can0  621   [7]  20 04 24 0B 01 25 23
  can0  3C3   [8]  22 00 00 00 80 40 34 9D
  can0  635   [3]  25 00 23
  can0  555   [8]  E0 00 6A 00 2A 00 00 48
  can0  651   [8]  C0 13 54 8F 36 55 C0 00
  can0  470   [8]  80 00 01 3A 20 00 00 00
  can0  531   [4]  00 A0 30 90
  can0  65F   [8]  02 31 30 31 39 36 31 33
  can0  658   [8]  70 00 00 0E 40 00 00 00
  can0  3E1   [8]  20 8B 1D 02 58 00 81 00
  can0  58C   [8]  00 00 2E 00 00 00 00 00
  can0  351   [8]  00 00 00 00 00 00 00 00
  can0  363   [8]  65 44 01 0E 03 05 65 53
  can0  6C2   [6]  A0 0F 8A FF 4A FF
  can0  359   [8]  20 01 00 00 00 6B 40 88
  can0  5C3   [2]  39 00
  can0  365   [8]  41 0E 04 72 0F 09 04 20
  can0  436   [6]  0B 01 00 00 00 00
  can0  2C3   [1]  07
  can0  470   [8]  80 00 01 3A 20 00 00 00
  can0  531   [4]  00 A0 40 E0
  can0  42B   [6]  16 01 00 00 00 00
  can0  151   [4]  00 A4 18 BC
  can0  2C1   [5]  00 00 80 00 02
  can0  35B   [8]  08 00 00 50 20 18 00 00
  can0  65D   [8]  54 1B A4 A3 19 DE 6E 18
  can0  621   [7]  20 04 24 0B 01 25 23
  can0  3C3   [8]  22 00 00 00 80 E0 79 FD
  can0  555   [8]  E0 00 6A 00 2A 00 00 48
  can0  651   [8]  C0 13 54 8F 36 55 C0 00
  can0  470   [8]  80 00 01 3A 20 00 00 00
  can0  531   [4]  00 A0 50 F0
  can0  658   [8]  70 00 00 0E 40 00 00 00
  can0  3E1   [8]  20 8B 1D 02 58 00 81 00
  can0  58C   [8]  00 00 2E 00 00 00 00 00
  can0  351   [8]  00 00 00 00 00 00 00 00
  can0  363   [8]  65 44 01 0E 03 05 65 53
  can0  6C2   [6]  A0 0F 8A FF 4A FF
  can0  359   [8]  20 01 00 00 00 6B 40 88
  can0  3E3   [8]  19 11 95 00 00 79 00 00
  can0  5B5   [8]  0A 05 00 00 00 00 00 0F
  can0  436   [6]  0B 01 00 00 00 00
  can0  523   [8]  FA 80 00 00 00 00 00 00
  can0  527   [8]  10 01 00 40 7D 8A 8B 00
  can0  365   [8]  41 0E 04 72 0F 09 04 20
  can0  2C3   [1]  07
  can0  470   [8]  80 00 01 3A 20 00 00 00
  can0  531   [4]  00 A0 60 C0
  can0  575   [4]  C7 02 00 C0
  can0  42B   [6]  16 01 00 00 00 00
  can0  151   [4]  00 A4 68 CC
  can0  2C1   [5]  00 00 80 00 02
  can0  35B   [8]  08 00 00 50 20 18 00 00
  can0  557   [8]  60 00 00 00 1C 00 00 48
  can0  621   [7]  20 04 24 0B 01 25 23
  can0  3C3   [8]  22 00 00 00 80 80 A7 5D
  can0  635   [3]  25 00 23
  can0  555   [8]  E0 00 6A 00 2A 00 00 48
  can0  651   [8]  C0 13 54 8F 36 55 C0 00
  can0  470   [8]  80 00 01 3A 20 00 00 00
  can0  531   [4]  00 A0 70 D0
  can0  65F   [8]  00 00 00 00 00 54 52 55
  can0  658   [8]  70 00 00 0E 40 00 00 00
  can0  3E1   [8]  20 8B 1D 02 58 00 81 00
  can0  58C   [8]  00 00 2E 00 00 00 00 00
  can0  351   [8]  00 00 00 00 00 00 00 00
  can0  436   [6]  0B 01 00 00 00 00
  can0  6C2   [6]  A0 0F 8A FF 4A FF
  can0  363   [8]  65 44 01 0E 03 05 65 53
  can0  359   [8]  20 01 00 00 00 6B 40 88
  can0  604   [8]  81 00 00 00 00 00 00 00
  can0  661   [8]  83 01 12 37 00 00 00 00
  can0  365   [8]  41 0E 04 72 0F 09 04 20
  can0  2C3   [1]  07
  can0  470   [8]  80 00 01 3A 20 00 00 00
  can0  531   [4]  00 A0 80 20
  can0  571   [6]  89 5F 00 0B 04 00
  can0  42B   [6]  16 01 00 00 00 00
  can0  151   [4]  00 A4 B8 1C
