  can0  635   [3]  1C 64 1A
  can0  470   [8]  00 00 01 64 20 00 00 00
  can0  531   [4]  C3 20 90 73
  can0  436   [6]  0B 01 00 00 00 00
  can0  6C2   [6]  A0 0F 8A FF 4A FF
  can0  3E1   [8]  31 95 2A 1D 3D 19 81 00
  can0  151   [4]  00 A4 C8 6C
  can0  35B   [8]  08 F6 0C C4 00 2C 02 B2
  can0  557   [8]  61 00 00 01 1C 00 00 48
  can0  621   [7]  20 8C 0B 31 01 1C 1A
  can0  3C3   [8]  10 81 00 00 80 50 B9 1E
  can0  58C   [8]  00 00 2E 00 00 00 00 00
  can0  2C1   [5]  00 00 80 00 02
  can0  555   [8]  E8 93 6A 00 2A 00 00 9C
  can0  651   [8]  C0 13 54 8F 36 55 C0 00
  can0  658   [8]  70 00 00 0E 40 00 00 00
  can0  351   [8]  00 00 00 00 00 00 00 00
  can0  470   [8]  00 00 01 64 20 00 00 00
  can0  531   [4]  C3 20 A0 43
  can0  571   [6]  A3 00 00 00 00 00
  can0  42B   [6]  16 01 00 00 00 00
  can0  575   [4]  47 20 00 80
  can0  359   [8]  20 01 00 00 00 6B 40 88
  can0  2C3   [1]  07
  can0  436   [6]  0B 01 00 00 00 00
  can0  470   [8]  00 00 01 64 20 00 00 00
  can0  531   [4]  C3 20 B0 53
  can0  6C2   [6]  A0 0F 8A FF 4A FF
  can0  3E1   [8]  31 95 2A 1D 3D 19 81 00
  can0  6C0   [1]  A3
  can0  151   [4]  00 A4 18 BC
  can0  35B   [8]  08 00 0D C4 00 2C 02 B2
  can0  655   [8]  F7 02 60 0F 1E 00 00 DA
  can0  6C1   [6]  A1 0F 8A FF 4A FF
  can0  65F   [8]  01 46 46 41 46 4B 34 41
  can0  621   [7]  20 8C 0B 31 01 1C 1A
  can0  3C3   [8]  10 81 00 00 80 F0 F4 7E
  can0  58C   [8]  00 00 2E 00 00 00 00 00
  can0  2C1   [5]  00 00 80 00 02
  can0  555   [8]  E8 93 6A 82 2A 00 00 9C
  can0  651   [8]  C0 13 54 8F 36 55 C0 00
  can0  42B   [6]  16 01 00 00 00 00
  can0  658   [8]  70 00 00 0E 40 00 00 00
  can0  351   [8]  00 00 00 00 00 00 00 00
  can0  470   [8]  00 00 01 64 20 00 00 00
  can0  531   [4]  C3 20 C0 23
  can0  359   [8]  20 01 00 00 00 6B 40 88
  can0  5B5   [8]  01 0E 00 00 00 00 00 0F
  can0  2C3   [1]  07
  can0  523   [8]  FA 80 00 00 00 00 00 00
  can0  527   [8]  10 01 00 40 7D 90 95 00
  can0  436   [6]  0B 01 00 00 00 00
  can0  635   [3]  1C 64 1A
  can0  470   [8]  00 00 01 64 20 00 00 00
  can0  531   [4]  C3 20 D0 33
  can0  6C2   [6]  A0 0F 8A FF 4A FF
  can0  3E1   [8]  31 95 2A 1D 3D 19 81 00
  can0  151   [4]  00 A4 68 CC
  can0  604   [8]  81 00 00 00 00 00 00 00
  can0  661   [8]  83 01 12 37 00 00 00 00
  can0  35B   [8]  08 F6 0C C4 00 2C 02 B3
  can0  653   [3]  82 02 84
  can0  621   [7]  20 8C 0B 31 01 1C 1A
  can0  3C3   [8]  10 81 00 00 80 90 2A DE
  can0  58C   [8]  00 00 2E 00 00 00 00 00
  can0  42B   [6]  16 01 00 00 00 00
  can0  2C1   [5]  00 00 80 00 02
  can0  555   [8]  E8 92 6A 82 2A 00 00 9C
  can0  651   [8]  C0 13 54 8F 36 55 C0 00
  can0  6DB   [8]  30 4E 01 00 00 00 00 00
  can0  658   [8]  70 00 00 0E 40 00 00 00
  can0  351   [8]  00 00 00 00 00 00 00 00
  can0  470   [8]  00 00 01 64 20 00 00 00
  can0  531   [4]  C3 20 E0 03
  can0  575   [4]  47 20 00 80
  can0  359   [8]  20 01 00 00 00 6B 40 88
  can0  2C3   [1]  07
  can0  436   [6]  0B 01 00 00 00 00
  can0  470   [8]  00 00 01 64 20 00 00 00
  can0  531   [4]  C3 20 F0 13
  can0  6C2   [6]  A0 0F 8A FF 4A FF
  can0  3E1   [8]  31 95 28 1B 3D 19 81 00
  can0  5C3   [2]  39 00
  can0  151   [4]  00 A4 B8 1C
  can0  35B   [8]  08 F0 0C C4 00 2C 02 B3
  can0  65F   [8]  02 31 30 31 39 36 31 33
  can0  42B   [6]  16 01 00 00 00 00
  can0  621   [7]  20 8C 0B 31 01 1C 1A
  can0  3C3   [8]  10 81 00 00 80 30 67 3E
  can0  58C   [8]  00 00 2E 00 00 00 00 00
  can0  2C1   [5]  00 00 80 00 02
  can0  555   [8]  E8 92 6A 01 2A 00 00 9C
  can0  651   [8]  C0 13 54 8F 36 55 C0 00
  can0  658   [8]  70 00 00 0E 40 00 00 00
  can0  351   [8]  00 00 00 00 00 00 00 00
  can0  470   [8]  00 00 01 64 20 00 00 00
  can0  531   [4]  C3 20 00 E3
  can0  359   [8]  20 01 00 00 00 6B 40 88
  can0  5B5   [8]  07 08 00 00 00 00 00 0F
  can0  2C3   [1]  07
  can0  523   [8]  FA 80 00 00 00 00 00 00
  can0  436   [6]  0B 01 00 00 00 00
  can0  527   [8]  10 01 00 40 7D 90 95 00
  can0  6C0   [8]  28 52 05 02 00 30 40 09
  can0  6C0   [8]  29 52 05 00 00 1B 40 30
  can0  6C0   [8]  2A 57 10 26 00 15 4C 0F
  can0  6C0   [8]  2B 01 04 3A 20 20 31 30
  can0  6C0   [5]  1C 39 2E 35 25
  can0  6C1   [1]  BD
  can0  635   [3]  1C 64 1A
  can0  3E3   [8]  00 00 9F 00 00 74 00 00
  can0  470   [8]  00 00 01 64 20 00 00 00
  can0  531   [4]  C3 20 10 F3
  can0  6C2   [6]  A0 0F 8A FF 4A FF
  can0  3E1   [8]  31 95 2B 1D 3D 19 81 00
  can0  42B   [6]  16 01 00 00 00 00
  can0  6C0   [2]  1D 39
  can0  151   [4]  00 A4 08 AC
  can0  35B   [8]  08 F8 0C C4 00 2C 02 B3
  can0  6C1   [1]  BE
  can0  621   [7]  20 8C 0B 31 01 1C 1A
  can0  3C3   [8]  10 81 00 00 80 D0 BE 9E
  can0  627   [8]  00 39 39 28 28 3B 3B 28
  can0  58C   [8]  00 00 2E 00 00 00 00 00
  can0  2C1   [5]  00 00 80 00 02
  can0  555   [8]  E8 92 6A 00 2A 00 00 9C
  can0  651   [8]  C0 13 54 8F 36 55 C0 00
  can0  658   [8]  70 00 00 0E 40 00 00 00
  can0  351   [8]  00 00 00 00 00 00 00 00
  can0  470   [8]  00 00 01 64 20 00 00 00
  can0  531   [4]  C3 20 20 C3
  can0  575   [4]  47 20 00 80
  can0  359   [8]  20 01 00 00 00 6B 40 88
  can0  436   [6]  0B 01 00 00 00 00
  can0  2C3   [1]  07
  can0  363   [8]  20 41 56 20 20 20 20 20
  can0  365   [8]  54 56 2F 56 49 44 45 4F
  can0  470   [8]  00 00 01 64 20 00 00 00
  can0  531   [4]  C3 20 30 D3
  can0  42B   [6]  16 01 00 00 00 00
  can0  6C2   [6]  A0 0F 8A FF 4A FF
  can0  3E1   [8]  31 95 2A 1B 3D 19 81 00
  can0  151   [4]  00 A4 58 FC
  can0  35B   [8]  08 04 0D C4 00 2C 02 B3
  can0  557   [8]  61 00 00 01 1C 00 00 48
  can0  65F   [8]  00 00 00 00 00 54 52 55
  can0  621   [7]  20 8C 0B 31 01 1C 1A
  can0  3C3   [8]  10 81 00 00 80 70 F3 FE
  can0  58C   [8]  00 00 2E 00 00 00 00 00
  can0  2C1   [5]  00 00 80 00 02
  can0  555   [8]  E8 92 6A 00 2A 00 00 9C
  can0  651   [8]  C0 13 54 8F 36 55 C0 00
  can0  658   [8]  70 00 00 0E 40 00 00 00
  can0  436   [6]  0B 01 00 00 00 00
  can0  351   [8]  00 00 00 00 00 00 00 00
  can0  470   [8]  00 00 01 64 20 00 00 00
  can0  531   [4]  C3 20 40 A3
  can0  571   [6]  A3 00 00 00 00 00
  can0  359   [8]  20 01 00 00 00 6B 40 88
  can0  5B5   [8]  0D 02 00 00 00 00 00 0F
  can0  2C3   [1]  07
  can0  523   [8]  FA 80 00 00 00 00 00 00
  can0  527   [8]  10 01 00 40 7D 90 95 00
  can0  635   [3]  1C 64 1A
  can0  42B   [6]  16 01 00 00 00 00
  can0  470   [8]  00 00 01 64 20 00 00 00
  can0  531   [4]  C3 20 50 B3
  can0  3E1   [8]  31 95 2A 1D 3D 19 81 00
  can0  6C2   [6]  A0 0F 8A FF 4A FF
  can0  151   [4]  00 A4 A8 0C
  can0  35B   [8]  08 08 0D C4 00 2C 02 B3
  can0  655   [8]  F7 02 60 0F 1E 00 00 DA
  can0  621   [7]  20 8C 0B 31 01 1C 1A
  can0  3C3   [8]  10 81 00 00 80 10 2D 5E
  can0  58C   [8]  00 00 2E 00 00 00 00 00
  can0  2C1   [5]  00 00 80 00 02
  can0  555   [8]  E8 92 6A 01 2A 00 00 9C
  can0  436   [6]  0B 01 00 00 00 00
  can0  651   [8]  C0 13 54 8F 36 55 C0 00
  can0  658   [8]  70 00 00 0E 40 00 00 00
  can0  351   [8]  00 00 00 00 00 00 00 00
  can0  470   [8]  00 00 01 64 20 00 00 00
  can0  531   [4]  C3 20 60 83
  can0  575   [4]  47 20 00 80
  can0  359   [8]  20 01 00 00 00 6B 40 88
  can0  2C3   [1]  07
  can0  42B   [6]  16 01 00 00 00 00
  can0  470   [8]  00 00 01 64 20 00 00 00
  can0  531   [4]  C3 20 70 93
  can0  3E1   [8]  31 95 2A 1D 3D 19 81 00
  can0  6C2   [6]  A0 0F 8A FF 4A FF
  can0  151   [4]  00 A4 F8 5C
  can0  35B   [8]  08 0E 0D C4 00 2C 02 B3
  can0  653   [3]  82 02 84
  can0  65F   [8]  01 46 46 41 46 4B 34 41
  can0  621   [7]  20 8C 0B 31 01 1C 1A
  can0  436   [6]  0B 01 00 00 00 00
  can0  3C3   [8]  10 81 00 00 80 B0 60 BE
  can0  58C   [8]  00 00 2E 00 00 00 00 00
  can0  2C1   [5]  00 00 80 00 02
  can0  555   [8]  E8 92 6A 80 2A 00 00 9C
  can0  651   [8]  C0 13 54 8F 36 55 C0 00
  can0  658   [8]  70 00 00 0E 40 00 00 00
  can0  351   [8]  00 00 00 00 00 00 00 00
  can0  470   [8]  00 00 01 64 20 00 00 00
  can0  531   [4]  C3 20 80 63
  can0  359   [8]  20 01 00 00 00 6B 40 88
  can0  5B5   [8]  03 0C 00 00 00 00 00 0F
  can0  2C3   [1]  07
  can0  523   [8]  FA 80 00 00 00 00 00 00
  can0  527   [8]  10 01 00 40 7D 90 95 00
  can0  42B   [6]  16 01 00 00 00 00
  can0  635   [3]  1C 64 1A
  can0  470   [8]  00 00 01 64 20 00 00 00
  can0  531   [4]  C3 20 90 73
  can0  3E1   [8]  31 95 2B 1D 3D 19 81 00
  can0  6C2   [6]  A0 0F 8A FF 4A FF
  can0  151   [4]  00 A4 48 EC
  can0  5C3   [2]  39 00
  can0  436   [6]  0B 01 00 00 00 00
  can0  35B   [8]  08 28 0D C4 00 2C 02 B4
  can0  623   [8]  00 16 38 49 12 03 20 26
  can0  621   [7]  20 8C 0B 31 01 1C 1A
  can0  3C3   [8]  10 81 00 00 80 50 B9 1E
  can0  58C   [8]  00 00 2E 00 00 00 00 00
  can0  2C1   [5]  00 00 80 00 02
  can0  555   [8]  E8 92 6A 03 2A 00 00 9C
  can0  651   [8]  C0 13 54 8F 36 55 C0 00
  can0  658   [8]  70 00 00 0E 40 00 00 00
  can0  351   [8]  00 00 00 00 00 00 00 00
  can0  470   [8]  00 00 01 64 20 00 00 00
  can0  531   [4]  C3 20 A0 43
  can0  575   [4]  47 20 00 80
  can0  359   [8]  20 01 00 00 00 6B 40 88
  can0  2C3   [1]  07
  can0  42B   [6]  16 01 00 00 00 00
  can0  470   [8]  00 00 01 64 20 00 00 00
  can0  531   [4]  C3 20 B0 53
  can0  3E1   [8]  31 95 2A 1D 3D 19 81 00
  can0  436   [6]  0B 01 00 00 00 00
  can0  6C2   [6]  A0 0F 8A FF 4A FF
  can0  151   [4]  00 A4 98 3C
  can0  35B   [8]  08 42 0D C4 00 2C 02 B4
  can0  65D   [8]  4B DF A2 A3 19 06 CD 18
  can0  65F   [8]  02 31 30 31 39 36 31 33
  can0  621   [7]  20 8C 0B 31 01 1C 1A
  can0  3C3   [8]  10 81 00 00 80 F0 F4 7E
  can0  627   [8]  00 39 39 28 28 3B 3B 28
  can0  58C   [8]  00 00 2E 00 00 00 00 00
  can0  2C1   [5]  00 00 80 00 02
  can0  555   [8]  E8 91 6A 00 2A 00 00 9C
  can0  651   [8]  C0 13 54 8F 36 55 C0 00
  can0  658   [8]  70 00 00 0E 40 00 00 00
  can0  351   [8]  00 00 00 00 00 00 00 00
  can0  60E   [2]  C7 00
  can0  470   [8]  00 00 01 64 20 00 00 00
  can0  531   [4]  C3 20 C0 23
  can0  42B   [6]  16 01 00 00 00 00
  can0  359   [8]  20 01 00 00 00 6B 40 88
  can0  5B5   [8]  09 06 00 00 00 00 00 0F
  can0  2C3   [1]  07
  can0  523   [8]  FA 80 00 00 00 00 00 00
  can0  527   [8]  10 01 00 40 7D 90 95 00
  can0  635   [3]  1C 64 1A
  can0  470   [8]  00 00 01 64 20 00 00 00
  can0  436   [6]  0B 01 00 00 00 00
  can0  531   [4]  C3 20 D0 33
  can0  3E1   [8]  31 95 28 1B 3D 19 81 00
  can0  6C2   [6]  A0 0F 8A FF 4A FF
  can0  151   [4]  00 A4 E8 4C
  can0  35B   [8]  08 20 0D C4 00 2C 02 B4
  can0  557   [8]  61 00 00 01 1C 00 00 48
  can0  621   [7]  20 8C 0B 31 01 1C 1A
  can0  3C3   [8]  10 81 00 00 80 90 2A DE
  can0  58C   [8]  00 00 2E 00 00 00 00 00
  can0  2C1   [5]  00 00 80 00 02
  can0  555   [8]  E8 90 6A 01 2A 00 00 9C
  can0  651   [8]  C0 13 54 8F 36 55 C0 00
  can0  658   [8]  70 00 00 0E 40 00 00 00
  can0  351   [8]  00 00 00 00 00 00 00 00
  can0  470   [8]  00 00 01 64 20 00 00 00
  can0  531   [4]  C3 20 E0 03
  can0  571   [6]  A4 00 00 00 00 00
  can0  42B   [6]  16 01 00 00 00 00
  can0  575   [4]  47 20 00 80
  can0  359   [8]  20 01 00 00 00 6B 40 88
  can0  2C3   [1]  07
  can0  470   [8]  00 00 01 64 20 00 00 00
  can0  436   [6]  0B 01 00 00 00 00
  can0  531   [4]  C3 20 F0 13
  can0  3E1   [8]  31 95 2A 1B 3D 19 81 00
  can0  6C2   [1]  A8
  can0  151   [4]  00 A4 38 9C
  can0  35B   [8]  08 24 0D C4 00 2C 02 B4
  can0  655   [8]  F7 02 60 0F 1E 00 00 DA
  can0  65F   [8]  00 00 00 00 00 54 52 55
  can0  621   [7]  20 8C 0B 31 01 1C 1A
  can0  3C3   [8]  10 81 00 00 80 30 67 3E
  can0  58C   [8]  00 00 2E 00 00 00 00 00
  can0  2C1   [5]  00 00 80 00 02
  can0  555   [8]  E8 8F 6A 80 2A 00 00 9C
  can0  651   [8]  C0 13 54 8F 36 55 C0 00
  can0  42B   [6]  16 01 00 00 00 00
  can0  658   [8]  70 00 00 0E 40 00 00 00
  can0  351   [8]  00 00 00 00 00 00 00 00
  can0  470   [8]  00 00 01 64 20 00 00 00
  can0  531   [4]  C3 20 00 E3
  can0  359   [8]  20 01 00 00 00 6B 40 88
  can0  5B5   [8]  0F 00 00 00 00 00 00 0F
  can0  2C3   [1]  07
  can0  523   [8]  FA 80 00 00 00 00 00 00
  can0  527   [8]  10 01 00 40 7D 90 95 00
  can0  6C1   [1]  A3
  can0  6C0   [6]  A1 0F 8A FF 4A FF
  can0  436   [6]  0B 01 00 00 00 00
  can0  635   [3]  1C 64 1A
  can0  3E3   [8]  00 00 9F 00 00 74 00 00
  can0  470   [8]  00 00 01 64 20 00 00 00
  can0  531   [4]  C3 20 10 F3
  can0  3E1   [8]  31 95 2A 1D 3D 19 81 00
  can0  151   [4]  00 A4 88 2C
  can0  6C2   [6]  A0 0F 8A FF 4A FF
  can0  35B   [8]  08 18 0D C4 00 2C 02 B4
  can0  604   [8]  81 00 00 00 00 00 00 00
  can0  653   [3]  82 02 84
  can0  661   [8]  83 01 12 37 00 00 00 00
  can0  621   [7]  20 8C 0B 31 01 1C 1A
  can0  3C3   [8]  10 81 00 00 80 D0 BE 9E
  can0  58C   [8]  00 00 2E 00 00 00 00 00
  can0  42B   [6]  16 01 00 00 00 00
  can0  2C1   [5]  00 00 80 00 02
  can0  555   [8]  E8 90 6A 80 2A 00 00 9C
  can0  6DB   [3]  30 4F 00
  can0  651   [8]  C0 13 54 8F 36 55 C0 00
  can0  658   [8]  70 00 00 0E 40 00 00 00
  can0  351   [8]  00 00 00 00 00 00 00 00
  can0  470   [8]  00 00 01 64 20 00 00 00
  can0  531   [4]  C3 20 20 C3
  can0  575   [4]  47 20 00 80
  can0  359   [8]  20 01 00 00 00 6B 40 88
  can0  2C3   [1]  07
  can0  363   [8]  20 41 56 20 20 20 20 20
  can0  365   [8]  54 56 2F 56 49 44 45 4F
  can0  436   [6]  0B 01 00 00 00 00
  can0  470   [8]  00 00 01 64 20 00 00 00
  can0  531   [4]  C3 20 30 D3
  can0  3E1   [8]  31 95 2A 1D 3D 19 81 00
  can0  151   [4]  00 A4 D8 7C
  can0  5C3   [2]  39 00
  can0  6C2   [6]  A0 0F 8A FF 4A FF
  can0  35B   [8]  08 12 0D C4 00 2C 02 B4
  can0  65F   [8]  01 46 46 41 46 4B 34 41
  can0  42B   [6]  16 01 00 00 00 00
  can0  621   [7]  20 8C 0B 31 01 1C 1A
  can0  3C3   [8]  10 81 00 00 80 70 F3 FE
  can0  58C   [8]  00 00 2E 00 00 00 00 00
  can0  2C1   [5]  00 00 80 00 02
  can0  555   [8]  E8 92 6A 01 2A 00 00 9C
  can0  651   [8]  C0 13 54 8F 36 55 C0 00
  can0  658   [8]  70 00 00 0E 40 00 00 00
  can0  351   [8]  00 00 00 00 00 00 00 00
  can0  470   [8]  00 00 01 64 20 00 00 00
  can0  531   [4]  C3 20 40 A3
  can0  359   [8]  20 01 00 00 00 6B 40 88
  can0  5B5   [8]  05 0A 00 00 00 00 00 0F
  can0  2C3   [1]  07
  can0  523   [8]  FA 80 00 00 00 00 00 00
  can0  436   [6]  0B 01 00 00 00 00
  can0  527   [8]  10 01 00 40 7D 90 95 00
  can0  6C0   [8]  2E 52 05 02 00 1C 40 09
  can0  6C0   [8]  2F 52 05 00 00 1B 40 30
  can0  6C0   [8]  20 57 11 26 00 01 42 0F
  can0  6C0   [8]  21 0F 73 74 3A 20 38 34
  can0  6C0   [6]  12 39 0D 02 01 72
  can0  635   [3]  1C 64 1A
  can0  470   [8]  00 00 01 64 20 00 00 00
  can0  531   [4]  C3 20 50 B3
  can0  6C1   [1]  B3
  can0  3E1   [8]  31 95 2A 1D 3D 19 81 00
  can0  42B   [6]  16 01 00 00 00 00
  can0  151   [4]  00 A4 28 8C
  can0  6C2   [6]  A0 0F 8A FF 4A FF
  can0  35B   [8]  08 16 0D C4 00 2C 02 B4
  can0  6C0   [8]  23 52 05 02 00 30 40 09
  can0  621   [7]  20 8C 0B 31 01 1C 1A
  can0  6C0   [8]  24 52 05 00 00 1B 40 30
  can0  6C0   [8]  25 57 10 26 00 15 4C 0F
  can0  3C3   [8]  10 81 00 00 80 10 2D 5E
  can0  627   [8]  00 39 39 28 28 3B 3B 28
  can0  58C   [8]  00 00 2E 00 00 00 00 00
  can0  6C0   [8]  26 01 04 3A 20 20 31 30
  can0  2C1   [5]  00 00 80 00 02
  can0  555   [8]  E8 92 6A 00 2A 00 00 9C
  can0  6C0   [5]  17 37 2E 32 25
  can0  651   [8]  C0 13 54 8F 36 55 C0 00
  can0  6C1   [1]  B8
  can0  658   [8]  70 00 00 0E 40 00 00 00
  can0  351   [8]  00 00 00 00 00 00 00 00
  can0  470   [8]  00 00 01 64 20 00 00 00
  can0  531   [4]  C3 20 60 83
  can0  575   [4]  47 20 00 80
  can0  359   [8]  20 01 00 00 00 6B 40 88
  can0  436   [6]  0B 01 00 00 00 00
  can0  2C3   [1]  07
  can0  6C0   [2]  18 39
  can0  6C1   [1]  B9
  can0  470   [8]  00 00 01 64 20 00 00 00
  can0  531   [4]  C3 20 70 93
  can0  3E1   [8]  31 95 2A 1D 3D 19 81 00
  can0  42B   [6]  16 01 00 00 00 00
  can0  151   [4]  00 A4 78 DC
  can0  35B   [8]  08 0C 0D C4 00 2C 02 B5
  can0  557   [8]  61 00 00 01 1C 00 00 48
  can0  65F   [8]  02 31 30 31 39 36 31 33
  can0  6C2   [6]  A0 0F 8A FF 4A FF
  can0  621   [7]  20 8C 0B 31 01 1C 1A
  can0  3C3   [8]  10 81 00 00 80 B0 60 BE
  can0  58C   [8]  00 00 2E 00 00 00 00 00
  can0  2C1   [5]  00 00 80 00 02
  can0  555   [8]  E8 91 6A 81 2A 00 00 9C
  can0  651   [8]  C0 13 54 8F 36 55 C0 00
  can0  658   [8]  70 00 00 0E 40 00 00 00
  can0  351   [8]  00 00 00 00 00 00 00 00
  can0  436   [6]  0B 01 00 00 00 00
  can0  470   [8]  00 00 01 64 20 00 00 00
  can0  531   [4]  C3 20 80 63
  can0  571   [6]  A4 00 00 00 00 00
  can0  359   [8]  20 01 00 00 00 6B 40 88
  can0  5B5   [8]  0B 04 00 00 00 00 00 0F
  can0  2C3   [1]  07
  can0  523   [8]  FA 80 00 00 00 00 00 00
  can0  527   [8]  10 01 00 40 7D 90 95 00
  can0  635   [3]  1C 64 1A
  can0  470   [8]  00 00 01 64 20 00 00 00
  can0  531   [4]  C3 20 90 73
  can0  3E1   [8]  31 95 2A 1D 3D 19 81 00
  can0  42B   [6]  16 01 00 00 00 00
  can0  151   [4]  00 A4 C8 6C
  can0  35B   [8]  08 18 0D C4 00 2C 02 B5
  can0  6C2   [6]  A0 0F 8A FF 4A FF
  can0  655   [8]  F7 02 60 0F 1E 00 00 DA
  can0  621   [7]  20 8C 0B 31 01 1C 1A
  can0  3C3   [8]  10 81 00 00 80 50 B9 1E
  can0  58C   [8]  00 00 2E 00 00 00 00 00
  can0  2C1   [5]  00 00 80 00 02
  can0  555   [8]  E8 90 6A 03 2A 00 00 9C
  can0  651   [8]  C0 13 54 8F 36 55 C0 00
  can0  658   [8]  70 00 00 0E 40 00 00 00
  can0  351   [8]  00 00 00 00 00 00 00 00
  can0  436   [6]  0B 01 00 00 00 00
  can0  470   [8]  00 00 01 64 20 00 00 00
  can0  531   [4]  C3 20 A0 43
  can0  575   [4]  47 20 00 80
  can0  359   [8]  20 01 00 00 00 6B 40 88
  can0  2C3   [1]  07
  can0  470   [8]  00 00 01 64 20 00 00 00
  can0  3E1   [8]  31 95 2A 1B 3D 19 81 00
  can0  531   [4]  C3 20 B0 53
  can0  42B   [6]  16 01 00 00 00 00
  can0  151   [4]  00 A4 18 BC
  can0  35B   [8]  08 1A 0D C4 00 2C 02 B5
  can0  653   [3]  82 02 84
  can0  65F   [8]  00 00 00 00 00 54 52 55
  can0  6C2   [6]  A0 0F 8A FF 4A FF
  can0  621   [7]  20 8C 0B 31 01 1C 1A
  can0  3C3   [8]  10 81 00 00 80 F0 F4 7E
  can0  58C   [8]  00 00 2E 00 00 00 00 00
  can0  2C1   [5]  00 00 80 00 02
  can0  555   [8]  E8 8F 6A 83 2A 00 00 9C
  can0  651   [8]  C0 13 54 8F 36 55 C0 00
  can0  658   [8]  70 00 00 0E 40 00 00 00
  can0  351   [8]  00 00 00 00 00 00 00 00
  can0  436   [6]  0B 01 00 00 00 00
  can0  470   [8]  00 00 01 64 20 00 00 00
  can0  531   [4]  C3 20 C0 23
  can0  359   [8]  20 01 00 00 00 6B 40 88
  can0  5B5   [8]  01 0E 00 00 00 00 00 0F
  can0  2C3   [1]  07
  can0  523   [8]  FA 80 00 00 00 00 00 00
  can0  527   [8]  10 01 00 40 7D 90 96 00
  can0  635   [3]  1C 64 1A
  can0  470   [8]  00 00 01 64 20 00 00 00
  can0  3E1   [8]  31 96 2A 1B 3D 19 81 00
  can0  531   [4]  C3 20 D0 33
  can0  42B   [6]  16 01 00 00 00 00
  can0  151   [4]  00 A4 68 CC
  can0  5C3   [2]  39 00
  can0  35B   [8]  08 14 0D C4 00 2C 02 B5
  can0  623   [8]  00 16 38 50 12 03 20 26
  can0  6C2   [6]  A0 0F 8A FF 4A FF
  can0  621   [7]  20 8C 0B 31 01 1C 1A
  can0  3C3   [8]  10 81 00 00 80 90 2A DE
  can0  58C   [8]  00 00 2E 00 00 00 00 00
  can0  2C1   [5]  00 00 80 00 02
  can0  555   [8]  E8 90 6A 00 2A 00 00 9C
  can0  651   [8]  C0 13 54 8F 36 55 C0 00
  can0  658   [8]  70 00 00 0E 40 00 00 00
  can0  351   [8]  00 00 00 00 00 00 00 00
  can0  436   [6]  0B 01 00 00 00 00
  can0  470   [8]  00 00 01 64 20 00 00 00
  can0  531   [4]  C3 20 E0 03
  can0  575   [4]  47 20 00 80
  can0  359   [8]  20 01 00 00 00 6B 40 88
  can0  2C3   [1]  07
  can0  470   [8]  00 00 01 64 20 00 00 00
  can0  3E1   [8]  31 96 2A 1D 3D 19 81 00
  can0  531   [4]  C3 20 F0 13
  can0  42B   [6]  16 01 00 00 00 00
  can0  151   [4]  00 A4 B8 1C
  can0  6C0   [8]  29 52 05 02 00 1C 40 09
  can0  6C0   [8]  2A 52 05 00 00 1B 40 30
  can0  35B   [8]  08 14 0D C4 00 2C 02 B5
  can0  65D   [8]  4B DF A2 A3 19 06 4D 19
  can0  65F   [8]  01 46 46 41 46 4B 34 41
  can0  6C0   [8]  2B 57 11 26 00 01 42 0F
  can0  6C2   [6]  A0 0F 8A FF 4A FF
  can0  621   [7]  20 8C 0B 31 01 1C 1A
  can0  6C0   [8]  2C 0F 73 74 3A 20 38 33
  can0  6C0   [6]  1D 39 0D 02 01 72
  can0  3C3   [8]  10 81 00 00 80 30 67 3E
  can0  627   [8]  00 39 39 28 28 3B 3B 28
  can0  6C1   [1]  BE
  can0  58C   [8]  00 00 2E 00 00 00 00 00
  can0  2C1   [5]  00 00 80 00 02
  can0  555   [8]  E8 91 6A 01 2A 00 00 9C
  can0  651   [8]  C0 13 54 8F 36 55 C0 00
  can0  658   [8]  70 00 00 0E 40 00 00 00
  can0  351   [8]  00 00 00 00 00 00 00 00
  can0  436   [6]  0B 01 00 00 00 00
  can0  470   [8]  00 00 01 64 20 00 00 00
  can0  60E   [2]  C7 00
  can0  531   [4]  C3 20 00 E3
  can0  359   [8]  20 01 00 00 00 6B 40 88
  can0  5B5   [8]  07 08 00 00 00 00 00 0F
  can0  2C3   [1]  07
  can0  523   [8]  FA 80 00 00 00 00 00 00
  can0  6C0   [8]  2E 57 10 26 00 15 4C 0F
  can0  6C0   [8]  2F 01 04 3A 20 20 31 30
  can0  527   [8]  10 01 00 40 7D 90 95 00
  can0  6C0   [5]  10 38 2E 30 25
  can0  6C1   [1]  B1
  can0  3E3   [8]  00 00 9F 00 00 74 00 00
  can0  635   [3]  1C 64 1A
  can0  42B   [6]  16 01 00 00 00 00
  can0  3E1   [8]  31 95 2A 1F 3D 19 81 00
  can0  470   [8]  00 00 01 64 20 00 00 00
  can0  531   [4]  C3 20 10 F3
  can0  6C0   [8]  21 57 10 26 00 15 4C 0F
  can0  6C0   [8]  22 01 04 3A 20 20 31 30
  can0  6C0   [5]  13 38 2E 30 25
  can0  6C1   [1]  B4
  can0  151   [4]  00 A4 08 AC
  can0  35B   [8]  08 10 0D C4 00 2C 02 B5
  can0  557   [8]  61 00 00 01 1C 00 00 48
  can0  6C2   [6]  A0 0F 8A FF 4A FF
  can0  621   [7]  20 8C 0B 31 01 1C 1A
  can0  3C3   [8]  10 81 00 00 80 D0 BE 9E
  can0  58C   [8]  00 00 2E 00 00 00 00 00
  can0  2C1   [5]  00 00 80 00 02
  can0  555   [8]  E8 91 6A 01 2A 00 00 9C
  can0  6C0   [2]  14 39
  can0  651   [8]  C0 13 54 8F 36 55 C0 00
  can0  436   [6]  0B 01 00 00 00 00
  can0  6C1   [1]  B5
  can0  658   [8]  70 00 00 0E 40 00 00 00
  can0  351   [8]  00 00 00 00 00 00 00 00
  can0  470   [8]  00 00 01 64 20 00 00 00
  can0  531   [4]  C3 20 20 C3
  can0  571   [6]  A4 00 00 00 00 00
  can0  575   [4]  47 20 00 80
  can0  359   [8]  20 01 00 00 00 6B 40 88
  can0  2C3   [1]  07
  can0  363   [8]  20 41 56 20 20 20 20 20
  can0  365   [8]  54 56 2F 56 49 44 45 4F
  can0  42B   [6]  16 01 00 00 00 00
  can0  3E1   [8]  31 95 2A 1D 3D 19 81 00
  can0  470   [8]  00 00 01 64 20 00 00 00
  can0  531   [4]  C3 20 30 D3
  can0  151   [4]  00 A4 58 FC
  can0  35B   [8]  08 24 0D C4 00 2C 02 B5
  can0  655   [8]  F7 02 60 0F 1E 00 00 DA
  can0  65F   [8]  02 31 30 31 39 36 31 33
  can0  6C2   [6]  A0 0F 8A FF 4A FF
  can0  621   [7]  20 8C 0B 31 01 1C 1A
  can0  6C0   [1]  A3
  can0  3C3   [8]  10 81 00 00 80 70 F3 FE
  can0  436   [6]  0B 01 00 00 00 00
  can0  6C1   [6]  A1 0F 8A FF 4A FF
  can0  58C   [8]  00 00 2E 00 00 00 00 00
  can0  2C1   [5]  00 00 80 00 02
  can0  555   [8]  E8 91 6A 01 2A 00 00 9C
  can0  651   [8]  C0 13 54 8F 36 55 C0 00
  can0  658   [8]  70 00 00 0E 40 00 00 00
  can0  351   [8]  00 00 00 00 00 00 00 00
  can0  470   [8]  00 00 01 64 20 00 00 00
  can0  531   [4]  C3 20 40 A3
  can0  359   [8]  20 01 00 00 00 6B 40 88
  can0  5B5   [8]  0D 02 00 00 00 00 00 0F
  can0  2C3   [1]  07
  can0  523   [8]  FA 80 00 00 00 00 00 00
  can0  527   [8]  10 01 00 40 7D 90 95 00
  can0  42B   [6]  16 01 00 00 00 00
  can0  635   [3]  1C 64 1A
  can0  3E1   [8]  31 95 2A 1D 3D 19 81 00
  can0  470   [8]  00 00 01 64 20 00 00 00
  can0  531   [4]  C3 20 50 B3
  can0  151   [4]  00 A4 A8 0C
  can0  35B   [8]  08 24 0D C4 00 2C 02 B6
  can0  653   [3]  82 02 84
  can0  436   [6]  0B 01 00 00 00 00
  can0  604   [8]  81 00 00 00 00 00 00 00
  can0  661   [8]  83 01 12 37 00 00 00 00
  can0  621   [7]  20 8C 0B 31 01 1C 1A
  can0  6C2   [6]  A0 0F 8A FF 4A FF
  can0  6DB   [4]  30 5B 40 01
  can0  3C3   [8]  10 81 00 00 80 10 2D 5E
  can0  58C   [8]  00 00 2E 00 00 00 00 00
  can0  2C1   [5]  00 00 80 00 02
  can0  555   [8]  E8 91 6A 81 2A 00 00 9C
  can0  651   [8]  C0 13 54 8F 36 55 C0 00
  can0  658   [8]  70 00 00 0E 40 00 00 00
  can0  351   [8]  00 00 00 00 00 00 00 00
  can0  470   [8]  00 00 01 64 20 00 00 00
  can0  531   [4]  C3 20 60 83
  can0  575   [4]  47 20 00 80
  can0  359   [8]  20 01 00 00 00 6B 40 88
  can0  42B   [6]  16 01 00 00 00 00
  can0  2C3   [1]  07
  can0  3E1   [8]  31 95 2A 1D 3D 19 81 00
  can0  470   [8]  00 00 01 64 20 00 00 00
  can0  531   [4]  C3 20 70 93
  can0  436   [6]  0B 01 00 00 00 00
  can0  151   [4]  00 A4 F8 5C
  can0  5C3   [2]  39 00
  can0  35B   [8]  08 26 0D C4 00 2C 02 B6
  can0  65F   [8]  00 00 00 00 00 54 52 55
  can0  6C2   [1]  A8
  can0  621   [7]  20 8C 0B 31 01 1C 1A
  can0  3C3   [8]  10 81 00 00 80 B0 60 BE
  can0  58C   [8]  00 00 2E 00 00 00 00 00
  can0  2C1   [5]  00 00 80 00 02
  can0  555   [8]  E8 90 6A 00 2A 00 00 9C
  can0  651   [8]  C0 13 54 8F 36 55 C0 00
  can0  658   [8]  70 00 00 0E 40 00 00 00
  can0  351   [8]  00 00 00 00 00 00 00 00
  can0  470   [8]  00 00 01 64 20 00 00 00
  can0  42B   [6]  16 01 00 00 00 00
  can0  531   [4]  C3 20 80 63
  can0  359   [8]  20 01 00 00 00 6B 40 88
  can0  5B5   [8]  03 0C 00 00 00 00 00 0F
  can0  2C3   [1]  07
  can0  523   [8]  FA 80 00 00 00 00 00 00
  can0  527   [8]  10 01 00 40 7D 90 95 00
  can0  635   [3]  1C 64 1A
  can0  3E1   [8]  31 95 2A 1D 3D 19 81 00
  can0  470   [8]  00 00 01 64 20 00 00 00
  can0  531   [4]  C3 20 90 73
  can0  436   [6]  0B 01 00 00 00 00
  can0  151   [4]  00 A4 48 EC
  can0  6C0   [8]  25 52 05 02 00 30 40 09
  can0  6C0   [8]  26 52 05 00 00 1B 40 30
  can0  35B   [8]  08 22 0D C4 00 2C 02 B6
  can0  6C0   [8]  27 57 10 26 00 15 4C 0F
  can0  6C0   [8]  28 01 04 3A 20 20 31 30
  can0  621   [7]  20 8C 0B 31 01 1C 1A
  can0  6C0   [5]  19 38 2E 38 25
  can0  3C3   [8]  10 81 00 00 80 50 B9 1E
  can0  627   [8]  00 39 39 28 28 3B 3B 28
  can0  6C1   [1]  BA
  can0  58C   [8]  00 00 2E 00 00 00 00 00
  can0  6C2   [6]  A0 0F 8A FF 4A FF
  can0  2C1   [5]  00 00 80 00 02
  can0  555   [8]  E8 90 6A 80 2A 00 00 9C
  can0  651   [8]  C0 13 54 8F 36 55 C0 00
  can0  42B   [6]  16 01 00 00 00 00
  can0  658   [8]  70 00 00 0E 40 00 00 00
  can0  351   [8]  00 00 00 00 00 00 00 00
  can0  470   [8]  00 00 01 64 20 00 00 00
  can0  531   [4]  C3 20 A0 43
  can0  575   [4]  47 20 00 80
  can0  359   [8]  20 01 00 00 00 6B 40 88
  can0  6C0   [2]  1A 39
  can0  6C1   [1]  BB
  can0  2C3   [1]  07
  can0  436   [6]  0B 01 00 00 00 00
  can0  3E1   [8]  31 95 2A 1D 3D 19 81 00
  can0  470   [8]  00 00 01 64 20 00 00 00
  can0  531   [4]  C3 20 B0 53
  can0  151   [4]  00 A4 98 3C
  can0  35B   [8]  08 28 0D C4 00 2C 02 B6
  can0  557   [8]  61 00 00 01 1C 00 00 48
  can0  65F   [8]  01 46 46 41 46 4B 34 41
  can0  621   [7]  20 8C 0B 31 01 1C 1A
  can0  3C3   [8]  10 81 00 00 80 F0 F4 7E
  can0  58C   [8]  00 00 2E 00 00 00 00 00
  can0  6C2   [6]  A0 0F 8A FF 4A FF
  can0  555   [8]  E8 8F 6A 00 2A 00 00 9C
  can0  2C1   [5]  00 00 80 00 02
  can0  651   [8]  C0 13 54 8F 36 55 C0 00
  can0  42B   [6]  16 01 00 00 00 00
  can0  658   [8]  70 00 00 0E 40 00 00 00
  can0  351   [8]  00 00 00 00 00 00 00 00
  can0  470   [8]  00 00 01 64 20 00 00 00
  can0  531   [4]  C3 20 C0 23
  can0  571   [6]  A4 00 00 00 00 00
  can0  359   [8]  20 01 00 00 00 6B 40 88
  can0  5B5   [8]  09 06 00 00 00 00 00 0F
  can0  2C3   [1]  07
  can0  523   [8]  FA 80 00 00 00 00 00 00
  can0  527   [8]  10 01 00 40 7D 90 95 00
  can0  635   [3]  1C 64 1A
  can0  436   [6]  0B 01 00 00 00 00
  can0  3E1   [8]  31 95 2A 1D 3D 19 81 00
  can0  470   [8]  00 00 01 64 20 00 00 00
  can0  531   [4]  C3 20 D0 33
  can0  151   [4]  00 A4 E8 4C
  can0  35B   [8]  08 44 0D C4 00 2C 02 B6
  can0  655   [8]  F7 02 60 0F 1E 00 00 DA
  can0  621   [7]  20 8C 0B 31 01 1C 1A
  can0  3C3   [8]  10 81 00 00 80 90 2A DE
  can0  58C   [8]  00 00 2E 00 00 00 00 00
  can0  6C2   [6]  A0 0F 8A FF 4A FF
  can0  2C1   [5]  00 00 80 00 02
  can0  555   [8]  E8 8E 6A 03 2A 00 00 9C
  can0  651   [8]  C0 13 54 8F 36 55 C0 00
  can0  42B   [6]  16 01 00 00 00 00
  can0  658   [8]  70 00 00 0E 40 00 00 00
  can0  351   [8]  00 00 00 00 00 00 00 00
  can0  470   [8]  00 00 01 64 20 00 00 00
  can0  531   [4]  C3 20 E0 03
  can0  575   [4]  47 20 00 80
  can0  359   [8]  20 01 00 00 00 6B 40 88
  can0  2C3   [1]  07
  can0  436   [6]  0B 01 00 00 00 00
  can0  3E1   [8]  31 95 2B 1D 3D 19 81 00
  can0  470   [8]  00 00 01 64 20 00 00 00
  can0  531   [4]  C3 20 F0 13
  can0  151   [4]  00 A4 38 9C
  can0  35B   [8]  08 30 0D C4 00 2C 02 B6
  can0  653   [3]  82 02 84
  can0  65F   [8]  02 31 30 31 39 36 31 33
  can0  621   [7]  20 8C 0B 31 01 1C 1A
  can0  3C3   [8]  10 81 00 00 80 30 67 3E
  can0  58C   [8]  00 00 2E 00 00 00 00 00
  can0  6C2   [6]  A0 0F 8A FF 4A FF
  can0  2C1   [5]  00 00 80 00 02
  can0  555   [8]  E8 8E 6A 85 2A 00 00 9C
  can0  651   [8]  C0 13 54 8F 36 55 C0 00
  can0  42B   [6]  16 01 00 00 00 00
  can0  658   [8]  70 00 00 0E 40 00 00 00
  can0  351   [8]  00 00 00 00 00 00 00 00
  can0  470   [8]  00 00 01 64 20 00 00 00
  can0  531   [4]  C3 20 00 E3
  can0  359   [8]  20 01 00 00 00 6B 40 88
  can0  5B5   [8]  0F 00 00 00 00 00 00 0F
  can0  2C3   [1]  07
  can0  523   [8]  FA 80 00 00 00 00 00 00
  can0  527   [8]  10 01 00 40 7D 90 96 00
  can0  3E3   [8]  00 00 9F 00 00 74 00 00
  can0  635   [3]  1C 64 1A
  can0  436   [6]  0B 01 00 00 00 00
  can0  3E1   [8]  31 96 2A 1D 3D 19 81 00
  can0  470   [8]  00 00 01 64 20 00 00 00
  can0  531   [4]  C3 20 10 F3
  can0  151   [4]  00 A4 88 2C
  can0  5C3   [2]  39 00
  can0  35B   [8]  08 20 0D C4 00 2C 02 B6
  can0  623   [8]  00 16 38 51 12 03 20 26
  can0  621   [7]  20 8C 0B 31 01 1C 1A
  can0  3C3   [8]  10 81 00 00 80 D0 BE 9E
  can0  58C   [8]  00 00 2E 00 00 00 00 00
  can0  6C2   [6]  A0 0F 8A FF 4A FF
  can0  2C1   [5]  00 00 80 00 02
  can0  555   [8]  E8 8E 6A 01 2A 00 00 9C
  can0  651   [8]  C0 13 54 8F 36 55 C0 00
  can0  42B   [6]  16 01 00 00 00 00
  can0  658   [8]  70 00 00 0E 40 00 00 00
  can0  351   [8]  00 00 00 00 00 00 00 00
  can0  470   [8]  00 00 01 64 20 00 00 00
  can0  531   [4]  C3 20 20 C3
  can0  575   [4]  47 20 00 80
  can0  359   [8]  20 01 00 00 00 6B 40 88
  can0  2C3   [1]  07
  can0  363   [8]  20 41 56 20 20 20 20 20
  can0  365   [8]  54 56 2F 56 49 44 45 4F
  can0  436   [6]  0B 01 00 00 00 00
  can0  3E1   [8]  31 96 2A 1D 3D 19 81 00
  can0  470   [8]  00 00 01 64 20 00 00 00
  can0  531   [4]  C3 20 30 D3
  can0  151   [4]  00 A4 D8 7C
  can0  6C0   [8]  2B 52 05 02 00 1C 40 09
  can0  6C0   [8]  2C 52 05 00 00 1B 40 30
  can0  35B   [8]  08 1A 0D C4 00 2C 02 B7
  can0  65D   [8]  4B DF A2 A3 19 06 CD 19
  can0  65F   [8]  00 00 00 00 00 54 52 55
  can0  6C0   [8]  2D 57 11 26 00 01 42 0F
  can0  621   [7]  20 8C 0B 31 01 1C 1A
  can0  6C0   [8]  2E 0F 73 74 3A 20 38 34
  can0  6C0   [6]  1F 39 0D 02 01 72
  can0  3C3   [8]  10 81 00 00 80 70 F3 FE
  can0  627   [8]  00 39 39 28 28 3B 3B 28
  can0  6C1   [1]  B0
  can0  58C   [8]  00 00 2E 00 00 00 00 00
  can0  6C2   [6]  A0 0F 8A FF 4A FF
  can0  2C1   [5]  00 00 80 00 02
  can0  555   [8]  E8 8F 6A 00 2A 00 00 9C
  can0  651   [8]  C0 13 54 8F 36 55 C0 00
  can0  42B   [6]  16 01 00 00 00 00
  can0  658   [8]  70 00 00 0E 40 00 00 00
  can0  351   [8]  00 00 00 00 00 00 00 00
  can0  470   [8]  00 00 01 64 20 00 00 00
  can0  60E   [2]  C7 00
  can0  531   [4]  C3 20 40 A3
  can0  359   [8]  20 01 00 00 00 6B 40 88
  can0  6C0   [8]  20 52 05 02 00 30 40 09
  can0  6C0   [8]  21 52 05 00 00 1B 40 30
  can0  5B5   [8]  05 0A 00 00 00 00 00 0F
  can0  6C0   [8]  22 57 10 26 00 15 4C 0F
  can0  6C0   [8]  23 01 04 3A 20 20 31 30
  can0  6C0   [5]  14 36 2E 35 25
  can0  2C3   [1]  07
  can0  523   [8]  FA 80 00 00 00 00 00 00
  can0  527   [8]  10 01 00 40 7D 90 96 00
  can0  6C1   [1]  B5
  can0  635   [3]  1C 64 1A
  can0  436   [6]  0B 01 00 00 00 00
  can0  3E1   [8]  31 96 2A 1D 3D 19 81 00
  can0  6C0   [2]  15 39
  can0  470   [8]  00 00 01 64 20 00 00 00
  can0  531   [4]  C3 20 50 B3
  can0  6C1   [1]  B6
  can0  151   [4]  00 A4 28 8C
  can0  35B   [8]  08 16 0D C4 00 2C 02 B7
  can0  557   [8]  61 00 00 01 1C 00 00 48
  can0  621   [7]  20 8C 0B 31 01 1C 1A
  can0  3C3   [8]  10 81 00 00 80 10 2D 5E
  can0  58C   [8]  00 00 2E 00 00 00 00 00
  can0  6C2   [6]  A0 0F 8A FF 4A FF
  can0  2C1   [5]  00 00 80 00 02
  can0  555   [8]  E8 90 6A 80 2A 00 00 9C
  can0  651   [8]  C0 13 54 8F 36 55 C0 00
  can0  42B   [6]  16 01 00 00 00 00
  can0  658   [8]  70 00 00 0E 40 00 00 00
  can0  351   [8]  00 00 00 00 00 00 00 00
  can0  470   [8]  00 00 01 64 20 00 00 00
  can0  531   [4]  C3 20 60 83
  can0  359   [8]  20 01 00 00 00 6B 40 88
  can0  571   [6]  A4 00 00 00 00 00
  can0  575   [4]  47 20 00 80
  can0  2C3   [1]  07
  can0  3E1   [8]  31 96 2A 1D 3D 19 81 00
  can0  436   [6]  0B 01 00 00 00 00
  can0  470   [8]  00 00 01 64 20 00 00 00
  can0  531   [4]  C3 20 70 93
  can0  151   [4]  00 A4 78 DC
  can0  35B   [8]  08 24 0D C4 00 2C 02 B7
  can0  655   [8]  F7 02 60 0F 1E 00 00 DA
  can0  65F   [8]  01 46 46 41 46 4B 34 41
  can0  621   [7]  20 8C 0B 31 01 1C 1A
  can0  3C3   [8]  10 81 00 00 80 B0 60 BE
  can0  58C   [8]  00 00 2E 00 00 00 00 00
  can0  6C2   [6]  A0 0F 8A FF 4A FF
  can0  2C1   [5]  00 00 80 00 02
  can0  555   [8]  E8 90 6A 01 2A 00 00 9C
  can0  651   [8]  C0 13 54 8F 36 55 C0 00
  can0  42B   [6]  16 01 00 00 00 00
  can0  658   [8]  70 00 00 0E 40 00 00 00
  can0  351   [8]  00 00 00 00 00 00 00 00
  can0  470   [8]  00 00 01 64 20 00 00 00
  can0  531   [4]  C3 20 80 63
  can0  359   [8]  20 01 00 00 00 6B 40 88
  can0  5B5   [8]  0B 04 00 00 00 00 00 0F
  can0  2C3   [1]  07
  can0  523   [8]  FA 80 00 00 00 00 00 00
  can0  527   [8]  10 01 00 40 7D 90 96 00
  can0  6C1   [1]  A3
  can0  635   [3]  1C 64 1A
  can0  3E1   [8]  31 96 2A 1D 3D 19 81 00
  can0  436   [6]  0B 01 00 00 00 00
  can0  6C0   [6]  A1 0F 8A FF 4A FF
  can0  470   [8]  00 00 01 64 20 00 00 00
  can0  531   [4]  C3 20 90 73
  can0  151   [4]  00 A4 C8 6C
  can0  35B   [8]  08 34 0D C4 00 2C 02 B7
  can0  653   [3]  82 02 84
  can0  6DB   [4]  30 61 40 01
  can0  604   [8]  81 00 00 00 00 00 00 00
  can0  621   [7]  20 8C 0B 31 01 1C 1A
  can0  661   [8]  83 01 12 37 00 00 00 00
  can0  3C3   [8]  10 81 00 00 80 50 B9 1E
  can0  58C   [8]  00 00 2E 00 00 00 00 00
  can0  6C2   [6]  A0 0F 8A FF 4A FF
  can0  2C1   [5]  00 00 80 00 02
  can0  555   [8]  E8 8E 6A 01 2A 00 00 9C
  can0  651   [8]  C0 13 54 8F 36 55 C0 00
  can0  42B   [6]  16 01 00 00 00 00
  can0  658   [8]  70 00 00 0E 40 00 00 00
  can0  351   [8]  00 00 00 00 00 00 00 00
  can0  470   [8]  00 00 01 64 20 00 00 00
  can0  531   [4]  C3 20 A0 43
  can0  575   [4]  47 20 00 80
  can0  359   [8]  20 01 00 00 00 6B 40 88
  can0  2C3   [1]  07
  can0  3E1   [8]  31 96 2A 1D 3D 19 81 00
  can0  436   [6]  0B 01 00 00 00 00
  can0  470   [8]  00 00 01 64 20 00 00 00
  can0  531   [4]  C3 20 B0 53
  can0  151   [4]  00 A4 18 BC
  can0  5C3   [2]  39 00
  can0  35B   [8]  08 22 0D C4 00 2C 02 B7
  can0  65F   [8]  02 31 30 31 39 36 31 33
  can0  621   [7]  20 8C 0B 31 01 1C 1A
  can0  3C3   [8]  10 81 00 00 80 F0 F4 7E
  can0  58C   [8]  00 00 2E 00 00 00 00 00
  can0  6C2   [6]  A0 0F 8A FF 4A FF
  can0  2C1   [5]  00 00 80 00 02
  can0  555   [8]  E8 8F 6A 00 2A 00 00 9C
  can0  651   [8]  C0 13 54 8F 36 55 C0 00
  can0  42B   [6]  16 01 00 00 00 00
  can0  658   [8]  70 00 00 0E 40 00 00 00
  can0  351   [8]  00 00 00 00 00 00 00 00
  can0  470   [8]  00 00 01 64 20 00 00 00
  can0  531   [4]  C3 20 C0 23
  can0  359   [8]  20 01 00 00 00 6B 40 88
  can0  5B5   [8]  01 0E 00 00 00 00 00 0F
  can0  523   [8]  FA 80 00 00 00 00 00 00
  can0  2C3   [1]  07
  can0  527   [8]  10 01 00 40 7D 90 96 00
  can0  3E1   [8]  31 96 2A 1D 3D 19 81 00
  can0  635   [3]  1C 64 1A
  can0  436   [6]  0B 01 00 00 00 00
  can0  470   [8]  00 00 01 64 20 00 00 00
  can0  531   [4]  C3 20 D0 33
  can0  151   [4]  00 A4 68 CC
  can0  6C0   [8]  26 52 05 02 00 1C 40 09
  can0  35B   [8]  08 22 0D C4 00 2C 02 B7
  can0  6C0   [8]  27 52 05 00 00 1B 40 30
  can0  6C0   [8]  28 57 11 26 00 01 42 0F
  can0  621   [7]  20 8C 0B 31 01 1C 1A
  can0  6C0   [8]  29 0F 73 74 3A 20 38 33
  can0  6C0   [6]  1A 39 0D 02 01 72
  can0  3C3   [8]  10 81 00 00 80 90 2A DE
  can0  627   [8]  00 39 39 28 28 3B 3B 28
  can0  58C   [8]  00 00 2E 00 00 00 00 00
  can0  6C1   [1]  BB
  can0  6C2   [6]  A0 0F 8A FF 4A FF
  can0  2C1   [5]  00 00 80 00 02
  can0  555   [8]  E8 8F 6A 00 2A 00 00 9C
  can0  651   [8]  C0 13 54 8F 36 55 C0 00
  can0  42B   [6]  16 01 00 00 00 00
  can0  658   [8]  70 00 00 0E 40 00 00 00
  can0  351   [8]  00 00 00 00 00 00 00 00
  can0  470   [8]  00 00 01 64 20 00 00 00
  can0  531   [4]  C3 20 E0 03
  can0  575   [4]  47 20 00 80
  can0  359   [8]  20 01 00 00 00 6B 40 88
  can0  6C0   [2]  1B 39
  can0  6C1   [1]  BC
  can0  2C3   [1]  07
  can0  3E1   [8]  31 96 2B 1F 3D 19 81 00
  can0  436   [6]  0B 01 00 00 00 00
  can0  470   [8]  00 00 01 64 20 00 00 00
  can0  531   [4]  C3 20 F0 13
  can0  151   [4]  00 A4 B8 1C
  can0  35B   [8]  08 28 0D C4 00 2C 02 B7
  can0  557   [8]  61 00 00 01 1C 00 00 48
  can0  65F   [8]  00 00 00 00 00 54 52 55
  can0  621   [7]  20 8C 0B 31 01 1C 1A
  can0  3C3   [8]  10 81 00 00 80 30 67 3E
  can0  58C   [8]  00 00 2E 00 00 00 00 00
  can0  6C2   [1]  A8
  can0  555   [8]  E8 8F 6A 00 2A 00 00 9C
  can0  2C1   [5]  00 00 80 00 02
  can0  651   [8]  C0 13 54 8F 36 55 C0 00
  can0  42B   [6]  16 01 00 00 00 00
  can0  658   [8]  70 00 00 0E 40 00 00 00
  can0  351   [8]  00 00 00 00 00 00 00 00
  can0  470   [8]  00 00 01 64 20 00 00 00
  can0  531   [4]  C3 20 00 E3
  can0  571   [6]  A4 00 00 00 00 00
  can0  359   [8]  20 01 00 00 00 6B 40 88
  can0  5B5   [8]  07 08 00 00 00 00 00 0F
  can0  2C3   [1]  07
  can0  523   [8]  FA 80 00 00 00 00 00 00
  can0  527   [8]  10 01 00 40 7D 90 96 00
  can0  3E3   [8]  00 00 9F 00 00 74 00 00
  can0  3E1   [8]  31 96 2A 1D 3D 19 81 00
  can0  635   [3]  1C 64 1A
  can0  436   [6]  0B 01 00 00 00 00
  can0  470   [8]  00 00 01 64 20 00 00 00
  can0  531   [4]  C3 20 10 F3
  can0  151   [4]  00 A4 08 AC
  can0  35B   [8]  08 12 0D C4 00 2C 02 B8
  can0  655   [8]  F7 02 60 0F 1E 00 00 DA
  can0  621   [7]  20 8C 0B 31 01 1C 1A
  can0  3C3   [8]  10 81 00 00 80 D0 BE 9E
  can0  58C   [8]  00 00 2E 00 00 00 00 00
  can0  555   [8]  E8 8F 6A 02 2A 00 00 9C
  can0  2C1   [5]  00 00 80 00 02
  can0  651   [8]  C0 13 54 8F 36 55 C0 00
  can0  42B   [6]  16 01 00 00 00 00
  can0  6C2   [6]  A0 0F 8A FF 4A FF
  can0  658   [8]  70 00 00 0E 40 00 00 00
  can0  351   [8]  00 00 00 00 00 00 00 00
  can0  470   [8]  00 00 01 64 20 00 00 00
  can0  531   [4]  C3 20 20 C3
  can0  575   [4]  47 20 00 80
  can0  359   [8]  20 01 00 00 00 6B 40 88
  can0  2C3   [1]  07
  can0  363   [8]  20 41 56 20 20 20 20 20
  can0  365   [8]  54 56 2F 56 49 44 45 4F
  can0  436   [6]  0B 01 00 00 00 00
  can0  3E1   [8]  31 96 2A 1D 3D 19 81 00
  can0  470   [8]  00 00 01 64 20 00 00 00
  can0  531   [4]  C3 20 30 D3
  can0  151   [4]  00 A4 58 FC
  can0  35B   [8]  08 22 0D C4 00 2C 02 B8
  can0  653   [3]  82 02 84
  can0  65F   [8]  01 46 46 41 46 4B 34 41
  can0  621   [7]  20 8C 0B 31 01 1C 1A
  can0  3C3   [8]  10 81 00 00 80 70 F3 FE
  can0  58C   [8]  00 00 2E 00 00 00 00 00
  can0  42B   [6]  16 01 00 00 00 00
  can0  555   [8]  E8 90 6A 82 2A 00 00 9C
  can0  2C1   [5]  00 00 80 00 02
  can0  651   [8]  C0 13 54 8F 36 55 C0 00
  can0  6C2   [6]  A0 0F 8A FF 4A FF
  can0  658   [8]  70 00 00 0E 40 00 00 00
  can0  351   [8]  00 00 00 00 00 00 00 00
  can0  470   [8]  00 00 01 64 20 00 00 00
  can0  531   [4]  C3 20 40 A3
  can0  359   [8]  20 01 00 00 00 6B 40 88
  can0  5B5   [8]  0D 02 00 00 00 00 00 0F
  can0  523   [8]  FA 80 00 00 00 00 00 00
  can0  2C3   [1]  07
  can0  527   [8]  10 01 00 40 7D 90 96 00
  can0  436   [6]  0B 01 00 00 00 00
  can0  3E1   [8]  31 96 2A 1D 3D 19 81 00
  can0  635   [3]  1C 64 1A
  can0  470   [8]  00 00 01 64 20 00 00 00
  can0  531   [4]  C3 20 50 B3
  can0  151   [4]  00 A4 A8 0C
  can0  5C3   [2]  39 00
  can0  35B   [8]  08 18 0D C4 00 2C 02 B8
  can0  623   [8]  00 16 38 52 12 03 20 26
  can0  42B   [6]  16 01 00 00 00 00
  can0  621   [7]  20 8C 0B 31 01 1C 1A
  can0  3C3   [8]  10 81 00 00 80 10 2D 5E
  can0  58C   [8]  00 00 2E 00 00 00 00 00
  can0  555   [8]  E8 90 6A 01 2A 00 00 9C
  can0  2C1   [5]  00 00 80 00 02
  can0  651   [8]  C0 13 54 8F 36 55 C0 00
  can0  6C2   [6]  A0 0F 8A FF 4A FF
  can0  658   [8]  70 00 00 0E 40 00 00 00
  can0  351   [8]  00 00 00 00 00 00 00 00
  can0  470   [8]  00 00 01 64 20 00 00 00
  can0  531   [4]  C3 20 60 83
  can0  575   [4]  47 20 00 80
  can0  359   [8]  20 01 00 00 00 6B 40 88
  can0  436   [6]  0B 01 00 00 00 00
  can0  2C3   [1]  07
  can0  3E1   [8]  31 96 2B 1F 3D 19 81 00
  can0  470   [8]  00 00 01 64 20 00 00 00
  can0  531   [4]  C3 20 70 93
  can0  42B   [6]  16 01 00 00 00 00
  can0  151   [4]  00 A4 F8 5C
  can0  6C0   [8]  2C 52 05 02 00 1C 40 09
  can0  35B   [8]  08 2A 0D C4 00 2C 02 B8
  can0  6C0   [8]  2D 52 05 00 00 1B 40 30
  can0  65D   [8]  4B DF A2 A3 19 06 4D 1A
  can0  65F   [8]  02 31 30 31 39 36 31 33
  can0  6C0   [8]  2E 57 11 26 00 01 42 0F
  can0  621   [7]  20 8C 0B 31 01 1C 1A
  can0  6C0   [8]  2F 0F 73 74 3A 20 38 34
  can0  6C0   [6]  10 39 0D 02 01 72
  can0  3C3   [8]  10 81 00 00 80 B0 61 BE
  can0  627   [8]  00 39 39 28 28 3B 3B 28
  can0  58C   [8]  00 00 2E 00 00 00 00 00
  can0  6C1   [1]  B1
  can0  555   [8]  E8 91 6A 00 2A 00 00 9C
  can0  2C1   [5]  00 00 80 00 02
  can0  651   [8]  C0 13 54 8F 36 55 C0 00
  can0  658   [8]  70 00 00 0E 40 00 00 00
  can0  6C2   [6]  A0 0F 8A FF 4A FF
  can0  351   [8]  00 00 00 00 00 00 00 00
  can0  60E   [2]  C7 00
  can0  470   [8]  00 00 01 64 20 00 00 00
  can0  531   [4]  C3 20 80 63
  can0  359   [8]  20 01 00 00 00 6B 40 88
  can0  436   [6]  0B 01 00 00 00 00
  can0  6C0   [8]  21 52 05 02 00 30 40 09
  can0  6C0   [8]  22 52 05 00 00 1B 40 30
  can0  5B5   [8]  03 0C 00 00 00 00 00 0F
  can0  6C0   [8]  23 57 10 26 00 15 4C 0F
  can0  6C0   [8]  24 01 04 3A 20 20 31 30
  can0  523   [8]  FA 80 00 00 00 00 00 00
  can0  2C3   [1]  07
  can0  6C0   [5]  15 38 2E 30 25
  can0  527   [8]  10 01 00 40 7D 90 96 00
  can0  6C1   [1]  B6
  can0  3E1   [8]  31 96 28 1D 3D 19 81 00
  can0  635   [3]  1C 64 1A
  can0  6C0   [2]  16 39
  can0  470   [8]  00 00 01 64 20 00 00 00
  can0  531   [4]  C3 20 90 73
  can0  6C1   [1]  B7
  can0  42B   [6]  16 01 00 00 00 00
  can0  151   [4]  00 A4 48 EC
  can0  35B   [8]  08 28 0D C4 00 2C 02 B8
  can0  557   [8]  61 00 00 01 1C 00 00 48
  can0  621   [7]  20 8C 0B 31 01 1C 1A
  can0  3C3   [8]  10 81 00 00 80 50 B9 1E
  can0  58C   [8]  00 00 2E 00 00 00 00 00
  can0  555   [8]  E8 91 6A 01 2A 00 00 9C
  can0  2C1   [5]  00 00 80 00 02
  can0  651   [8]  C0 13 54 8F 36 55 C0 00
  can0  658   [8]  70 00 00 0E 40 00 00 00
  can0  436   [6]  0B 01 00 00 00 00
  can0  6C2   [6]  A0 0F 8A FF 4A FF
  can0  351   [8]  00 00 00 00 00 00 00 00
  can0  470   [8]  00 00 01 64 20 00 00 00
  can0  531   [4]  C3 20 A0 43
  can0  571   [6]  A5 00 00 00 00 00
  can0  575   [4]  47 20 00 80
  can0  359   [8]  20 01 00 00 00 6B 40 88
  can0  2C3   [1]  07
  can0  3E1   [8]  31 96 2A 1D 3D 19 81 00
  can0  42B   [6]  16 01 00 00 00 00
  can0  470   [8]  00 00 01 64 20 00 00 00
  can0  531   [4]  C3 20 B0 53
  can0  151   [4]  00 A4 98 3C
  can0  35B   [8]  08 38 0D C4 00 2C 02 B8
  can0  655   [8]  F7 02 60 0F 1E 00 00 DA
  can0  65F   [8]  00 00 00 00 00 54 52 55
  can0  621   [7]  20 8C 0B 31 01 1C 1A
  can0  3C3   [8]  10 81 00 00 80 F0 F4 7E
  can0  58C   [8]  00 00 2E 00 00 00 00 00
  can0  555   [8]  E8 90 6A 02 2A 00 00 9C
  can0  2C1   [5]  00 00 80 00 02
  can0  436   [6]  0B 01 00 00 00 00
  can0  651   [8]  C0 13 54 8F 36 55 C0 00
  can0  658   [8]  70 00 00 0E 40 00 00 00
  can0  6C2   [6]  A0 0F 8A FF 4A FF
  can0  351   [8]  00 00 00 00 00 00 00 00
  can0  6C0   [1]  A3
  can0  470   [8]  00 00 01 64 20 00 00 00
  can0  531   [4]  C3 20 C0 23
  can0  359   [8]  20 01 00 00 00 6B 40 88
  can0  5B5   [8]  09 06 00 00 00 00 00 0F
  can0  6C1   [6]  A1 0F 8A FF 4A FF
  can0  523   [8]  FA 80 00 00 00 00 00 00
  can0  2C3   [1]  07
  can0  527   [8]  10 01 00 40 7D 90 96 00
  can0  42B   [6]  16 01 00 00 00 00
  can0  3E1   [8]  31 96 2A 1D 3D 19 81 00
  can0  635   [3]  1C 64 1A
  can0  470   [8]  00 00 01 64 20 00 00 00
  can0  531   [4]  C3 20 D0 33
  can0  6DB   [8]  30 42 03 00 01 00 03 00
  can0  151   [4]  00 A4 E8 4C
  can0  35B   [8]  08 3E 0D C4 00 2C 02 B9
  can0  653   [3]  82 02 84
  can0  621   [7]  20 8C 0B 31 01 1C 1A
  can0  436   [6]  0B 01 00 00 00 00
  can0  604   [8]  81 00 00 00 00 00 00 00
  can0  661   [8]  83 01 12 37 00 00 00 00
  can0  3C3   [8]  10 81 00 00 80 90 2A DE
  can0  58C   [8]  00 00 2E 00 00 00 00 00
  can0  555   [8]  E8 90 6A 80 2A 00 00 9C
  can0  2C1   [5]  00 00 80 00 02
  can0  651   [8]  C0 13 54 8F 36 55 C0 00
  can0  658   [8]  70 00 00 0E 40 00 00 00
  can0  6C2   [6]  A0 0F 8A FF 4A FF
  can0  351   [8]  00 00 00 00 00 00 00 00
  can0  470   [8]  00 00 01 64 20 00 00 00
  can0  531   [4]  C3 20 E0 03
  can0  575   [4]  47 20 00 80
  can0  359   [8]  20 01 00 00 00 6B 40 88
  can0  2C3   [1]  07
  can0  42B   [6]  16 01 00 00 00 00
  can0  3E1   [8]  31 96 2A 1F 3D 19 81 00
  can0  470   [8]  00 00 01 64 20 00 00 00
  can0  531   [4]  C3 20 F0 13
  can0  151   [4]  00 A4 38 9C
  can0  436   [6]  0B 01 00 00 00 00
  can0  5C3   [2]  39 00
  can0  35B   [8]  08 36 0D C4 00 2C 02 B9
  can0  65F   [8]  01 46 46 41 46 4B 34 41
  can0  621   [7]  20 8C 0B 31 01 1C 1A
  can0  3C3   [8]  10 81 00 00 80 30 67 3E
  can0  58C   [8]  00 00 2E 00 00 00 00 00
  can0  555   [8]  E8 8F 6A 01 2A 00 00 9C
  can0  2C1   [5]  00 00 80 00 02
  can0  651   [8]  C0 13 54 8F 36 55 C0 00
  can0  658   [8]  70 00 00 0E 40 00 00 00
  can0  6C2   [6]  A0 0F 8A FF 4A FF
  can0  351   [8]  00 00 00 00 00 00 00 00
  can0  470   [8]  00 00 01 64 20 00 00 00
  can0  531   [4]  C3 20 00 E3
  can0  359   [8]  20 01 00 00 00 6B 40 88
  can0  5B5   [8]  0F 00 00 00 00 00 00 0F
  can0  42B   [6]  16 01 00 00 00 00
  can0  523   [8]  FA 80 00 00 00 00 00 00
  can0  2C3   [1]  07
  can0  527   [8]  10 01 00 40 7D 90 96 00
  can0  3E3   [8]  00 00 9F 00 00 74 00 00
  can0  3E1   [8]  31 96 2A 1F 3D 19 81 00
  can0  635   [3]  1C 64 1A
  can0  470   [8]  00 00 01 64 20 00 00 00
  can0  531   [4]  C3 20 10 F3
  can0  436   [6]  0B 01 00 00 00 00
  can0  151   [4]  00 A4 88 2C
  can0  35B   [8]  08 42 0D C4 00 2C 02 B9
  can0  621   [7]  20 8C 0B 31 01 1C 1A
  can0  3C3   [8]  10 81 00 00 80 D0 BE 9E
  can0  627   [8]  00 39 39 28 28 3B 3B 28
  can0  58C   [8]  00 00 2E 00 00 00 00 00
  can0  555   [8]  E8 8E 6A 83 2A 00 00 9C
  can0  2C1   [5]  00 00 80 00 02
  can0  6C0   [8]  27 52 05 02 00 1C 40 09
  can0  651   [8]  C0 13 54 8F 36 55 C0 00
  can0  6C0   [8]  28 52 05 00 00 1B 40 30
  can0  6C0   [8]  29 57 11 26 00 01 42 0F
  can0  658   [8]  70 00 00 0E 40 00 00 00
  can0  6C0   [8]  2A 0F 73 74 3A 20 38 33
  can0  6C2   [6]  A0 0F 8A FF 4A FF
  can0  6C0   [6]  1B 39 0D 02 01 72
  can0  351   [8]  00 00 00 00 00 00 00 00
  can0  6C1   [1]  BC
  can0  470   [8]  00 00 01 64 20 00 00 00
  can0  531   [4]  C3 20 20 C3
  can0  42B   [6]  16 01 00 00 00 00
  can0  575   [4]  47 20 00 80
  can0  359   [8]  20 01 00 00 00 6B 40 88
  can0  2C3   [1]  07
  can0  6C0   [8]  2C 52 05 02 00 30 40 09
  can0  363   [8]  20 41 56 20 20 20 20 20
  can0  365   [8]  54 56 2F 56 49 44 45 4F
  can0  6C0   [8]  2D 52 05 00 00 1B 40 30
  can0  6C0   [8]  2E 57 10 26 00 15 4C 0F
  can0  6C0   [8]  2F 01 04 3A 20 20 31 30
  can0  3E1   [8]  31 96 2B 1F 3D 19 81 00
  can0  6C0   [5]  10 37 2E 32 25
  can0  6C1   [1]  B1
  can0  436   [6]  0B 01 00 00 00 00
  can0  470   [8]  00 00 01 64 20 00 00 00
  can0  531   [4]  C3 20 30 D3
  can0  6C0   [2]  11 39
  can0  151   [4]  00 A4 D8 7C
  can0  35B   [8]  08 26 0D C4 00 2C 02 B9
  can0  557   [8]  61 00 00 01 1C 00 00 48
  can0  6C1   [1]  B2
  can0  65F   [8]  02 31 30 31 39 36 31 33
  can0  621   [7]  20 8C 0B 31 01 1C 1A
  can0  3C3   [8]  10 81 00 00 80 70 F3 FE
  can0  58C   [8]  00 00 2E 00 00 00 00 00
  can0  555   [8]  E8 8D 6A 82 2A 00 00 9C
  can0  2C1   [5]  00 00 80 00 02
  can0  651   [8]  C0 13 54 8F 36 55 C0 00
  can0  42B   [6]  16 01 00 00 00 00
  can0  658   [8]  70 00 00 0E 40 00 00 00
  can0  6C2   [6]  A0 0F 8A FF 4A FF
  can0  351   [8]  00 00 00 00 00 00 00 00
  can0  470   [8]  00 00 01 64 20 00 00 00
  can0  531   [4]  C3 20 40 A3
  can0  571   [6]  A4 00 00 00 00 00
  can0  359   [8]  20 01 00 00 00 6B 40 88
  can0  5B5   [8]  05 0A 00 00 00 00 00 0F
  can0  523   [8]  FA 80 00 00 00 00 00 00
  can0  2C3   [1]  07
  can0  527   [8]  10 01 00 40 7D 90 96 00
  can0  3E1   [8]  31 96 2A 1D 3D 19 81 00
  can0  436   [6]  0B 01 00 00 00 00
  can0  635   [3]  1C 64 1A
  can0  470   [8]  00 00 01 64 20 00 00 00
  can0  531   [4]  C3 20 50 B3
  can0  151   [4]  00 A4 28 8C
  can0  35B   [8]  08 26 0D C4 00 2C 02 B9
  can0  655   [8]  F7 02 60 0F 1E 00 00 DA
  can0  621   [7]  20 8C 0B 31 01 1C 1A
  can0  3C3   [8]  10 81 00 00 80 10 2D 5E
  can0  58C   [8]  00 00 2E 00 00 00 00 00
  can0  42B   [6]  16 01 00 00 00 00
  can0  555   [8]  E8 8E 6A 01 2A 00 00 9C
  can0  2C1   [5]  00 00 80 00 02
  can0  651   [8]  C0 13 54 8F 36 55 C0 00
  can0  658   [8]  70 00 00 0E 40 00 00 00
  can0  6C2   [6]  A0 0F 8A FF 4A FF
  can0  351   [8]  00 00 00 00 00 00 00 00
  can0  470   [8]  00 00 01 64 20 00 00 00
  can0  531   [4]  C3 20 60 83
  can0  575   [4]  47 20 00 80
  can0  359   [8]  20 01 00 00 00 6B 40 88
  can0  2C3   [1]  07
  can0  436   [6]  0B 01 00 00 00 00
  can0  3E1   [8]  31 96 2A 1D 3D 19 81 00
  can0  470   [8]  00 00 01 64 20 00 00 00
  can0  531   [4]  C3 20 70 93
  can0  151   [4]  00 A4 78 DC
  can0  35B   [8]  08 24 0D C4 00 2C 02 B9
  can0  653   [3]  82 02 84
  can0  65F   [8]  00 00 00 00 00 54 52 55
  can0  42B   [6]  16 01 00 00 00 00
  can0  621   [7]  20 8C 0B 31 01 1C 1A
  can0  3C3   [8]  10 81 00 00 80 B0 60 BE
  can0  58C   [8]  00 00 2E 00 00 00 00 00
  can0  555   [8]  E8 8F 6A 81 2A 00 00 9C
  can0  2C1   [5]  00 00 80 00 02
  can0  651   [8]  C0 13 54 8F 36 55 C0 00
  can0  658   [8]  70 00 00 0E 40 00 00 00
  can0  6C2   [1]  A8
  can0  351   [8]  00 00 00 00 00 00 00 00
  can0  470   [8]  00 00 01 64 20 00 00 00
  can0  531   [4]  C3 20 80 63
  can0  359   [8]  20 01 00 00 00 6B 40 88
  can0  5B5   [8]  0B 04 00 00 00 00 00 0F
  can0  523   [8]  FA 80 00 00 00 00 00 00
  can0  2C3   [1]  07
  can0  436   [6]  0B 01 00 00 00 00
  can0  527   [8]  10 01 00 40 7D 90 96 00
  can0  3E1   [8]  31 96 2A 1D 3D 19 81 00
  can0  635   [3]  1C 64 1A
  can0  470   [8]  00 00 01 64 20 00 00 00
  can0  531   [4]  C3 20 90 73
  can0  42B   [6]  16 01 00 00 00 00
  can0  151   [4]  00 A4 C8 6C
  can0  5C3   [2]  39 00
  can0  35B   [8]  08 2C 0D C4 00 2C 02 B9
  can0  623   [8]  00 16 38 53 12 03 20 26
  can0  621   [7]  20 8C 0B 31 01 1C 1A
  can0  3C3   [8]  10 81 00 00 80 50 B9 1E
  can0  58C   [8]  00 00 2E 00 00 00 00 00
  can0  555   [8]  E8 8F 6A 01 2A 00 00 9C
  can0  2C1   [5]  00 00 80 00 02
  can0  651   [8]  C0 13 54 8F 36 55 C0 00
  can0  658   [8]  70 00 00 0E 40 00 00 00
  can0  351   [8]  00 00 00 00 00 00 00 00
  can0  470   [8]  00 00 01 64 20 00 00 00
  can0  531   [4]  C3 20 A0 43
  can0  575   [4]  47 20 00 80
  can0  359   [8]  20 01 00 00 00 6B 40 88
  can0  436   [6]  0B 01 00 00 00 00
  can0  6C2   [6]  A0 0F 8A FF 4A FF
  can0  2C3   [1]  07
  can0  3E1   [8]  31 96 2B 1F 3D 19 81 00
  can0  470   [8]  00 00 01 64 20 00 00 00
  can0  531   [4]  C3 20 B0 53
  can0  42B   [6]  16 01 00 00 00 00
  can0  151   [4]  00 A4 18 BC
  can0  35B   [8]  08 2E 0D C4 00 2C 02 BA
  can0  65D   [8]  4B DF A2 A3 19 06 CD 1A
  can0  65F   [8]  01 46 46 41 46 4B 34 41
  can0  621   [7]  20 8C 0B 31 01 1C 1A
  can0  3C3   [8]  10 81 00 00 80 F0 F4 7E
  can0  627   [8]  00 39 39 28 28 3B 3B 28
  can0  58C   [8]  00 00 2E 00 00 00 00 00
  can0  555   [8]  E8 8F 6A 00 2A 00 00 9C
  can0  2C1   [5]  00 00 80 00 02
  can0  651   [8]  C0 13 54 8F 36 55 C0 00
  can0  658   [8]  70 00 00 0E 40 00 00 00
  can0  436   [6]  0B 01 00 00 00 00
  can0  351   [8]  00 00 00 00 00 00 00 00
  can0  60E   [2]  C7 00
  can0  470   [8]  00 00 01 64 20 00 00 00
  can0  531   [4]  C3 20 C0 23
  can0  359   [8]  20 01 00 00 00 6B 40 88
  can0  6C2   [6]  A0 0F 8A FF 4A FF
  can0  5B5   [8]  01 0E 00 00 00 00 00 0F
  can0  523   [8]  FA 80 00 00 00 00 00 00
  can0  2C3   [1]  07
  can0  527   [8]  10 01 00 40 7D 90 96 00
  can0  3E1   [8]  31 96 2A 1D 3D 19 81 00
  can0  635   [3]  1C 64 1A
  can0  42B   [6]  16 01 00 00 00 00
  can0  470   [8]  00 00 01 64 20 00 00 00
  can0  531   [4]  C3 20 D0 33
  can0  151   [4]  00 A4 68 CC
  can0  35B   [8]  08 3A 0D C4 00 2C 02 BA
  can0  557   [8]  61 00 00 01 1C 00 00 48
  can0  621   [7]  20 8C 0B 31 01 1C 1A
  can0  3C3   [8]  10 81 00 00 80 90 2A DE
  can0  58C   [8]  00 00 2E 00 00 00 00 00
  can0  555   [8]  E8 8F 6A 01 2A 00 00 9C
  can0  2C1   [5]  00 00 80 00 02
  can0  436   [6]  0B 01 00 00 00 00
  can0  651   [8]  C0 13 54 8F 36 55 C0 00
  can0  658   [8]  70 00 00 0E 40 00 00 00
  can0  351   [8]  00 00 00 00 00 00 00 00
  can0  470   [8]  00 00 01 64 20 00 00 00
  can0  531   [4]  C3 20 E0 03
  can0  571   [6]  A4 00 00 00 00 00
  can0  575   [4]  47 20 00 80
  can0  359   [8]  20 01 00 00 00 6B 40 88
  can0  6C2   [6]  A0 0F 8A FF 4A FF
  can0  2C3   [1]  07
  can0  3E1   [8]  31 96 2A 1D 3D 19 81 00
  can0  42B   [6]  16 01 00 00 00 00
  can0  470   [8]  00 00 01 64 20 00 00 00
  can0  531   [4]  C3 20 F0 13
  can0  151   [4]  00 A4 B8 1C
  can0  35B   [8]  08 40 0D C4 00 2C 02 BA
  can0  655   [8]  F7 02 60 0F 1E 00 00 DA
  can0  65F   [8]  02 31 30 31 39 36 31 33
  can0  621   [7]  20 8C 0B 31 01 1C 1A
  can0  436   [6]  0B 01 00 00 00 00
  can0  3C3   [8]  10 81 00 00 80 30 67 3E
  can0  58C   [8]  00 00 2E 00 00 00 00 00
  can0  555   [8]  E8 8F 6A 81 2A 00 00 9C
  can0  2C1   [5]  00 00 80 00 02
  can0  651   [8]  C0 13 54 8F 36 55 C0 00
  can0  658   [8]  70 00 00 0E 40 00 00 00
  can0  351   [8]  00 00 00 00 00 00 00 00
  can0  470   [8]  00 00 01 64 20 00 00 00
  can0  531   [4]  C3 20 00 E3
  can0  359   [8]  20 01 00 00 00 6B 40 88
  can0  6C2   [6]  A0 0F 8A FF 4A FF
  can0  5B5   [8]  07 08 00 00 00 00 00 0F
  can0  523   [8]  FA 80 00 00 00 00 00 00
  can0  2C3   [1]  07
  can0  3E3   [8]  00 00 9F 00 00 74 00 00
  can0  527   [8]  10 01 00 40 7D 90 96 00
  can0  42B   [6]  16 01 00 00 00 00
  can0  3E1   [8]  31 96 2A 1D 3D 19 81 00
  can0  635   [3]  1C 64 1A
  can0  470   [8]  00 00 01 64 20 00 00 00
  can0  531   [4]  C3 20 10 F3
  can0  6DB   [8]  80 08 30 43 38 03 00 10
  can0  6C1   [1]  A3
  can0  151   [4]  00 A4 08 AC
  can0  436   [6]  0B 01 00 00 00 00
  can0  35B   [8]  08 4A 0D C4 00 2C 02 BA
  can0  653   [3]  82 02 84
  can0  621   [7]  20 8C 0B 31 01 1C 1A
  can0  604   [8]  81 00 00 00 00 00 00 00
  can0  3C3   [8]  10 81 00 00 80 D0 BE 9E
  can0  58C   [8]  00 00 2E 00 00 00 00 00
  can0  661   [8]  83 01 12 37 00 00 00 00
  can0  6C0   [6]  A1 0F 8A FF 4A FF
  can0  555   [8]  E8 8F 6A 81 2A 00 00 9C
  can0  2C1   [5]  00 00 80 00 02
  can0  651   [8]  C0 13 54 8F 36 55 C0 00
  can0  658   [8]  70 00 00 0E 40 00 00 00
  can0  351   [8]  00 00 00 00 00 00 00 00
  can0  470   [8]  00 00 01 64 20 00 00 00
  can0  531   [4]  C3 20 20 C3
  can0  575   [4]  47 20 00 80
  can0  359   [8]  20 01 00 00 00 6B 40 88
  can0  6C2   [6]  A0 0F 8A FF 4A FF
  can0  6DB   [5]  C0 40 00 00 00
  can0  42B   [6]  16 01 00 00 00 00
  can0  2C3   [1]  07
  can0  363   [8]  20 41 56 20 20 20 20 20
  can0  365   [8]  54 56 2F 56 49 44 45 4F
  can0  3E1   [8]  31 96 2B 1D 3D 19 81 00
  can0  470   [8]  00 00 01 64 20 00 00 00
  can0  531   [4]  C3 20 30 D3
  can0  436   [6]  0B 01 00 00 00 00
  can0  151   [4]  00 A4 58 FC
  can0  5C3   [2]  39 00
  can0  35B   [8]  08 30 0D C4 00 2C 02 BA
  can0  65F   [8]  00 00 00 00 00 54 52 55
  can0  621   [7]  20 8C 0B 31 01 1C 1A
  can0  3C3   [8]  10 81 00 00 80 70 F3 FE
  can0  58C   [8]  00 00 2E 00 00 00 00 00
  can0  555   [8]  E8 8F 6A 01 2A 00 00 9C
  can0  2C1   [5]  00 00 80 00 02
  can0  651   [8]  C0 13 54 8F 36 55 C0 00
  can0  658   [8]  70 00 00 0E 40 00 00 00
  can0  351   [8]  00 00 00 00 00 00 00 00
  can0  470   [8]  00 00 01 64 20 00 00 00
  can0  531   [4]  C3 20 40 A3
  can0  42B   [6]  16 01 00 00 00 00
  can0  359   [8]  20 01 00 00 00 6B 40 88
  can0  6C2   [6]  A0 0F 8A FF 4A FF
  can0  5B5   [8]  0D 02 00 00 00 00 00 0F
  can0  523   [8]  FA 80 00 00 00 00 00 00
  can0  2C3   [1]  07
  can0  527   [8]  10 01 00 40 7D 90 96 00
  can0  3E1   [8]  31 96 2A 1B 3D 19 81 00
  can0  635   [3]  1C 64 1A
  can0  436   [6]  0B 01 00 00 00 00
  can0  470   [8]  00 00 01 64 20 00 00 00
  can0  531   [4]  C3 20 50 B3
  can0  151   [4]  00 A4 A8 0C
  can0  35B   [8]  08 36 0D C4 00 2C 02 BA
  can0  621   [7]  20 8C 0B 31 01 1C 1A
  can0  3C3   [8]  10 81 00 00 80 10 2D 5E
  can0  627   [8]  00 39 39 28 28 3B 3B 28
  can0  58C   [8]  00 00 2E 00 00 00 00 00
  can0  555   [8]  E8 8F 6A 81 2A 00 00 9C
  can0  2C1   [5]  00 00 80 00 02
  can0  651   [8]  C0 13 54 8F 36 55 C0 00
  can0  42B   [6]  16 01 00 00 00 00
  can0  658   [8]  70 00 00 0E 40 00 00 00
  can0  351   [8]  00 00 00 00 00 00 00 00
  can0  470   [8]  00 00 01 64 20 00 00 00
  can0  531   [4]  C3 20 60 83
  can0  575   [4]  47 20 00 80
  can0  359   [8]  20 01 00 00 00 6B 40 88
  can0  6C2   [6]  A0 0F 8A FF 4A FF
  can0  2C3   [1]  07
  can0  3E1   [8]  31 96 2B 1D 3D 19 81 00
  can0  6C0   [8]  22 52 05 02 00 1C 40 09
  can0  436   [6]  0B 01 00 00 00 00
  can0  6C0   [8]  23 52 05 00 00 1B 40 30
  can0  6C0   [8]  24 57 11 26 00 01 42 0F
  can0  6C0   [8]  25 0F 73 74 3A 20 38 34
  can0  6C0   [6]  16 39 0D 02 01 72
  can0  470   [8]  00 00 01 64 20 00 00 00
  can0  531   [4]  C3 20 70 93
  can0  6C1   [1]  B7
  can0  151   [4]  00 A4 F8 5C
  can0  35B   [8]  08 28 0D C4 00 2C 02 BA
  can0  557   [8]  61 00 00 01 1C 00 00 48
  can0  65F   [8]  01 46 46 41 46 4B 34 41
  can0  6C0   [2]  17 39
  can0  621   [7]  20 8C 0B 31 01 1C 1A
  can0  3C3   [8]  10 81 00 00 80 B0 60 BE
  can0  6C1   [1]  B8
  can0  58C   [8]  00 00 2E 00 00 00 00 00
  can0  42B   [6]  16 01 00 00 00 00
  can0  555   [8]  E8 8E 6A 00 2A 00 00 9C
  can0  2C1   [5]  00 00 80 00 02
  can0  651   [8]  C0 13 54 8F 36 55 C0 00
  can0  658   [8]  70 00 00 0E 40 00 00 00
  can0  351   [8]  00 00 00 00 00 00 00 00
  can0  470   [8]  00 00 01 64 20 00 00 00
  can0  531   [4]  C3 20 80 63
  can0  571   [6]  A4 00 00 00 00 00
  can0  359   [8]  20 01 00 00 00 6B 40 88
  can0  6C2   [6]  A0 0F 8A FF 4A FF
  can0  5B5   [8]  03 0C 00 00 00 00 00 0F
  can0  523   [8]  FA 80 00 00 00 00 00 00
  can0  2C3   [1]  07
  can0  527   [8]  10 01 00 40 7D 90 96 00
  can0  3E1   [8]  31 96 2B 1D 3D 19 81 00
  can0  436   [6]  0B 01 00 00 00 00
  can0  635   [3]  1C 64 1A
  can0  470   [8]  00 00 01 64 20 00 00 00
  can0  531   [4]  C3 20 90 73
  can0  151   [4]  00 A4 48 EC
  can0  35B   [8]  08 2E 0D C4 00 2C 02 BB
  can0  655   [8]  F7 02 60 0F 1E 00 00 DA
  can0  42B   [6]  16 01 00 00 00 00
  can0  621   [7]  20 8C 0B 31 01 1C 1A
  can0  3C3   [8]  10 81 00 00 80 50 B9 1E
  can0  58C   [8]  00 00 2E 00 00 00 00 00
  can0  555   [8]  E8 8E 6A 01 2A 00 00 9C
  can0  2C1   [5]  00 00 80 00 02
  can0  651   [8]  C0 13 54 8F 36 55 C0 00
  can0  658   [8]  70 00 00 0E 40 00 00 00
  can0  351   [8]  00 00 00 00 00 00 00 00
  can0  470   [8]  00 00 01 64 20 00 00 00
  can0  531   [4]  C3 20 A0 43
  can0  575   [4]  47 20 00 80
  can0  359   [8]  20 01 00 00 00 6B 40 88
  can0  6C2   [6]  A0 0F 8A FF 4A FF
  can0  2C3   [1]  07
  can0  436   [6]  0B 01 00 00 00 00
  can0  3E1   [8]  31 96 2A 1D 3D 19 81 00
  can0  470   [8]  00 00 01 64 20 00 00 00
  can0  531   [4]  C3 20 B0 53
  can0  42B   [6]  16 01 00 00 00 00
  can0  151   [4]  00 A4 98 3C
  can0  35B   [8]  08 32 0D C4 00 2C 02 BB
  can0  653   [3]  82 02 84
  can0  65F   [8]  02 31 30 31 39 36 31 33
  can0  621   [7]  20 8C 0B 31 01 1C 1A
  can0  3C3   [8]  10 81 00 00 80 F0 F4 7E
  can0  58C   [8]  00 00 2E 00 00 00 00 00
  can0  555   [8]  E8 8E 6A 00 2A 00 00 9C
  can0  2C1   [5]  00 00 80 00 02
  can0  651   [8]  C0 13 54 8F 36 55 C0 00
  can0  658   [8]  70 00 00 0E 40 00 00 00
  can0  351   [8]  00 00 00 00 00 00 00 00
  can0  470   [8]  00 00 01 64 20 00 00 00
  can0  531   [4]  C3 20 C0 23
  can0  359   [8]  20 01 00 00 00 6B 40 88
  can0  436   [6]  0B 01 00 00 00 00
  can0  6C2   [6]  A0 0F 8A FF 4A FF
  can0  5B5   [8]  09 06 00 00 00 00 00 0F
  can0  523   [8]  FA 80 00 00 00 00 00 00
  can0  2C3   [1]  07
  can0  527   [8]  10 01 00 40 7D 90 96 00
  can0  3E1   [8]  31 96 2B 1F 3D 19 81 00
  can0  635   [3]  1C 64 1A
  can0  470   [8]  00 00 01 64 20 00 00 00
  can0  531   [4]  C3 20 D0 33
  can0  42B   [6]  16 01 00 00 00 00
  can0  151   [4]  00 A4 E8 4C
  can0  5C3   [2]  39 00
  can0  35B   [8]  08 3E 0D C4 00 2C 02 BB
  can0  623   [8]  00 16 38 54 12 03 20 26
  can0  621   [7]  20 8C 0B 31 01 1C 1A
  can0  3C3   [8]  10 81 00 00 80 90 2A DE
  can0  58C   [8]  00 00 2E 00 00 00 00 00
  can0  555   [8]  E8 8E 6A 81 2A 00 00 9C
  can0  2C1   [5]  00 00 80 00 02
  can0  651   [8]  C0 13 54 8F 36 55 C0 00
  can0  658   [8]  70 00 00 0E 40 00 00 00
  can0  436   [6]  0B 01 00 00 00 00
  can0  351   [8]  00 00 00 00 00 00 00 00
  can0  470   [8]  00 00 01 64 20 00 00 00
  can0  531   [4]  C3 20 E0 03
  can0  575   [4]  47 20 00 80
  can0  359   [8]  20 01 00 00 00 6B 40 88
  can0  6C2   [6]  A0 0F 8A FF 4A FF
  can0  2C3   [1]  07
  can0  3E1   [8]  31 96 2A 1F 3D 19 81 00
  can0  42B   [6]  16 01 00 00 00 00
  can0  470   [8]  00 00 01 64 20 00 00 00
  can0  531   [4]  C3 20 F0 13
  can0  151   [4]  00 A4 38 9C
  can0  35B   [8]  08 34 0D C4 00 2C 02 BB
  can0  65D   [8]  4B DF A2 A3 19 06 4D 1B
  can0  65F   [8]  00 00 00 00 00 54 52 55
  can0  621   [7]  20 8C 0B 31 01 1C 1A
  can0  3C3   [8]  10 81 00 00 80 30 67 3E
  can0  627   [8]  00 39 39 28 28 3B 3B 28
  can0  58C   [8]  00 00 2E 00 00 00 00 00
  can0  555   [8]  E8 8E 6A 00 2A 00 00 9C
  can0  2C1   [5]  00 00 80 00 02
  can0  436   [6]  0B 01 00 00 00 00
  can0  651   [8]  C0 13 54 8F 36 55 C0 00
  can0  658   [8]  70 00 00 0E 40 00 00 00
  can0  351   [8]  00 00 00 00 00 00 00 00
  can0  470   [8]  00 00 01 64 20 00 00 00
  can0  60E   [2]  C7 00
  can0  531   [4]  C3 20 00 E3
  can0  359   [8]  20 01 00 00 00 6B 40 88
  can0  6C2   [1]  A8
  can0  5B5   [8]  0F 00 00 00 00 00 00 0F
  can0  3E3   [8]  00 00 9F 00 00 74 00 00
  can0  523   [8]  FA 80 00 00 00 00 00 00
  can0  2C3   [1]  07
  can0  527   [8]  10 01 00 40 7D 90 96 00
  can0  3E1   [8]  31 96 2A 1D 3D 19 81 00
  can0  42B   [6]  16 01 00 00 00 00
  can0  635   [3]  1C 64 1A
  can0  470   [8]  00 00 01 64 20 00 00 00
  can0  531   [4]  C3 20 10 F3
  can0  6C0   [8]  28 52 05 02 00 1C 40 09
  can0  6C0   [8]  29 52 05 00 00 1B 40 30
  can0  151   [4]  00 A4 88 2C
  can0  6C0   [8]  2A 57 11 26 00 01 42 0F
  can0  6C0   [8]  2B 0F 73 74 3A 20 38 33
  can0  35B   [8]  08 18 0D C4 00 2C 02 BB
  can0  557   [8]  61 00 00 01 1C 00 00 48
  can0  6C0   [6]  1C 39 0D 02 01 72
  can0  621   [7]  20 8C 0B 31 01 1C 1A
  can0  436   [6]  0B 01 00 00 00 00
  can0  3C3   [8]  10 81 00 00 80 D0 BE 9E
  can0  6C1   [1]  BD
  can0  58C   [8]  00 00 2E 00 00 00 00 00
  can0  555   [8]  E8 8F 6A 01 2A 00 00 9C
  can0  2C1   [5]  00 00 80 00 02
  can0  651   [8]  C0 13 54 8F 36 55 C0 00
  can0  658   [8]  70 00 00 0E 40 00 00 00
  can0  351   [8]  00 00 00 00 00 00 00 00
  can0  470   [8]  00 00 01 64 20 00 00 00
  can0  531   [4]  C3 20 20 C3
  can0  571   [6]  A3 00 00 00 00 00
  can0  575   [4]  47 20 00 80
  can0  359   [8]  20 01 00 00 00 6B 40 88
  can0  6C0   [8]  2D 52 05 02 00 30 40 09
  can0  6C0   [8]  2E 52 05 00 00 1B 40 30
  can0  6C0   [8]  2F 57 10 26 00 15 4C 0F
  can0  6C0   [8]  20 01 04 3A 20 20 31 30
  can0  6C0   [5]  11 36 2E 35 25
  can0  2C3   [1]  07
  can0  6C2   [6]  A0 0F 8A FF 4A FF
  can0  6C1   [1]  B2
  can0  3E1   [8]  31 96 2A 1D 3D 19 81 00
  can0  42B   [6]  16 01 00 00 00 00
  can0  363   [8]  20 41 56 20 20 20 20 20
  can0  365   [8]  54 56 2F 56 49 44 45 4F
  can0  470   [8]  00 00 01 64 20 00 00 00
  can0  531   [4]  C3 20 30 D3
  can0  6C0   [2]  12 39
  can0  6C1   [1]  B3
  can0  151   [4]  00 A4 D8 7C
  can0  436   [6]  0B 01 00 00 00 00
  can0  35B   [8]  08 2A 0D C4 00 2C 02 BB
  can0  655   [8]  F7 02 60 0F 1E 00 00 DA
  can0  65F   [8]  01 46 46 41 46 4B 34 41
  can0  621   [7]  20 8C 0B 31 01 1C 1A
  can0  3C3   [8]  10 81 00 00 80 70 F3 FE
  can0  58C   [8]  00 00 2E 00 00 00 00 00
  can0  555   [8]  E8 91 6A 81 2A 00 00 9C
  can0  2C1   [5]  00 00 80 00 02
  can0  651   [8]  C0 13 54 8F 36 55 C0 00
  can0  658   [8]  70 00 00 0E 40 00 00 00
  can0  351   [8]  00 00 00 00 00 00 00 00
  can0  470   [8]  00 00 01 64 20 00 00 00
  can0  531   [4]  C3 20 40 A3
  can0  6C0   [1]  A3
  can0  359   [8]  20 01 00 00 00 6B 40 88
  can0  5B5   [8]  05 0A 00 00 00 00 00 0F
  can0  6C1   [6]  A1 0F 8A FF 4A FF
  can0  42B   [6]  16 01 00 00 00 00
  can0  523   [8]  FA 80 00 00 00 00 00 00
  can0  2C3   [1]  07
  can0  6C2   [6]  A0 0F 8A FF 4A FF
  can0  527   [8]  10 01 00 40 7D 90 96 00
  can0  3E1   [8]  31 96 2A 1D 3D 19 81 00
  can0  635   [3]  1C 64 1A
  can0  470   [8]  00 00 01 64 20 00 00 00
  can0  531   [4]  C3 20 50 B3
  can0  6DB   [3]  30 44 0A
  can0  436   [6]  0B 01 00 00 00 00
  can0  151   [4]  00 A4 28 8C
  can0  35B   [8]  08 38 0D C4 00 2C 02 BB
  can0  653   [3]  82 02 84
  can0  621   [7]  20 8C 0B 31 01 1C 1A
  can0  604   [8]  81 00 00 00 00 00 00 00
  can0  3C3   [8]  10 81 00 00 80 10 2D 5E
  can0  58C   [8]  00 00 2E 00 00 00 00 00
  can0  661   [8]  83 01 12 37 00 00 00 00
  can0  555   [8]  E8 91 6A 81 2A 00 00 9C
  can0  2C1   [5]  00 00 80 00 02
  can0  651   [8]  C0 13 54 8F 36 55 C0 00
  can0  658   [8]  70 00 00 0E 40 00 00 00
  can0  351   [8]  00 00 00 00 00 00 00 00
  can0  470   [8]  00 00 01 64 20 00 00 00
  can0  531   [4]  C3 20 60 83
  can0  575   [4]  47 20 00 80
  can0  42B   [6]  16 01 00 00 00 00
  can0  359   [8]  20 01 00 00 00 6B 40 88
  can0  2C3   [1]  07
  can0  6C2   [6]  A0 0F 8A FF 4A FF
  can0  3E1   [8]  31 96 2A 1D 3D 19 81 00
  can0  470   [8]  00 00 01 64 20 00 00 00
  can0  436   [6]  0B 01 00 00 00 00
  can0  531   [4]  C3 20 70 93
  can0  151   [4]  00 A4 78 DC
  can0  5C3   [2]  39 00
  can0  35B   [8]  08 32 0D C4 00 2C 02 BC
  can0  65F   [8]  02 31 30 31 39 36 31 33
  can0  621   [7]  20 8C 0B 31 01 1C 1A
  can0  3C3   [8]  10 81 00 00 80 B0 60 BE
  can0  58C   [8]  00 00 2E 00 00 00 00 00
  can0  555   [8]  E8 91 6A 02 2A 00 00 9C
  can0  2C1   [5]  00 00 80 00 02
  can0  651   [8]  C0 13 54 8F 36 55 C0 00
  can0  42B   [6]  16 01 00 00 00 00
  can0  658   [8]  70 00 00 0E 40 00 00 00
  can0  351   [8]  00 00 00 00 00 00 00 00
  can0  470   [8]  00 00 01 64 20 00 00 00
  can0  531   [4]  C3 20 80 63
  can0  359   [8]  20 01 00 00 00 6B 40 88
  can0  5B5   [8]  0B 04 00 00 00 00 00 0F
  can0  523   [8]  FA 80 00 00 00 00 00 00
  can0  2C3   [1]  07
  can0  527   [8]  10 01 00 40 7D 90 96 00
  can0  3E1   [8]  31 96 2A 1D 3D 19 81 00
  can0  6C2   [6]  A0 0F 8A FF 4A FF
  can0  436   [6]  0B 01 00 00 00 00
  can0  635   [3]  1C 64 1A
  can0  470   [8]  00 00 01 64 20 00 00 00
  can0  531   [4]  C3 20 90 73
  can0  151   [4]  00 A4 C8 6C
  can0  35B   [8]  08 3E 0D C4 00 2C 02 BC
  can0  621   [7]  20 8C 0B 31 01 1C 1A
  can0  3C3   [8]  10 81 00 00 80 50 B9 1E
  can0  627   [8]  00 39 39 28 28 3B 3B 28
  can0  58C   [8]  00 00 2E 00 00 00 00 00
  can0  42B   [6]  16 01 00 00 00 00
  can0  555   [8]  E8 8F 6A 82 2A 00 00 9C
  can0  2C1   [5]  00 00 80 00 02
  can0  651   [8]  C0 13 54 8F 36 55 C0 00
  can0  658   [8]  70 00 00 0E 40 00 00 00
  can0  351   [8]  00 00 00 00 00 00 00 00
  can0  470   [8]  00 00 01 64 20 00 00 00
  can0  531   [4]  C3 20 A0 43
  can0  575   [4]  47 20 00 80
  can0  359   [8]  20 01 00 00 00 6B 40 88
  can0  2C3   [1]  07
  can0  6C2   [6]  A0 0F 8A FF 4A FF
  can0  3E1   [8]  31 96 2A 1D 3D 19 81 00
  can0  436   [6]  0B 01 00 00 00 00
  can0  470   [8]  00 00 01 64 20 00 00 00
  can0  531   [4]  C3 20 B0 53
  can0  151   [4]  00 A4 18 BC
  can0  35B   [8]  08 38 0D C4 00 2C 02 BC
  can0  557   [8]  61 00 00 01 1C 00 00 48
  can0  65F   [8]  00 00 00 00 00 54 52 55
  can0  42B   [6]  16 01 00 00 00 00
  can0  621   [7]  20 8C 0B 31 01 1C 1A
  can0  3C3   [8]  10 81 00 00 80 F0 F4 7E
  can0  58C   [8]  00 00 2E 00 00 00 00 00
  can0  555   [8]  E8 8E 6A 01 2A 00 00 9C
  can0  2C1   [5]  00 00 80 00 02
  can0  6C0   [8]  23 52 05 02 00 1C 40 09
  can0  651   [8]  C0 13 54 8F 36 55 C0 00
  can0  6C0   [8]  24 52 05 00 00 1B 40 30
  can0  6C0   [8]  25 57 11 26 00 01 42 0F
  can0  658   [8]  70 00 00 0E 40 00 00 00
  can0  6C0   [8]  26 0F 73 74 3A 20 38 34
  can0  6C0   [6]  17 39 0D 02 01 72
  can0  351   [8]  00 00 00 00 00 00 00 00
  can0  6C1   [1]  B8
  can0  470   [8]  00 00 01 64 20 00 00 00
  can0  531   [4]  C3 20 C0 23
  can0  571   [6]  A3 00 00 00 00 00
  can0  359   [8]  20 01 00 00 00 6B 40 88
  can0  5B5   [8]  01 0E 00 00 00 00 00 0F
  can0  523   [8]  FA 80 00 00 00 00 00 00
  can0  2C3   [1]  07
  can0  527   [8]  10 01 00 40 7D 90 96 00
  can0  3E1   [8]  31 96 2A 1D 3D 19 81 00
  can0  436   [6]  0B 01 00 00 00 00
  can0  6C2   [6]  A0 0F 8A FF 4A FF
  can0  6C0   [8]  28 52 05 02 00 30 40 09
  can0  6C0   [8]  29 52 05 00 00 1B 40 30
  can0  6C0   [8]  2A 57 10 26 00 15 4C 0F
  can0  6C0   [8]  2B 01 04 3A 20 20 31 30
  can0  6C0   [5]  1C 37 2E 32 25
  can0  6C1   [1]  BD
  can0  635   [3]  1C 64 1A
  can0  470   [8]  00 00 01 64 20 00 00 00
  can0  531   [4]  C3 20 D0 33
  can0  6C0   [2]  1D 39
  can0  151   [4]  00 A4 68 CC
  can0  35B   [8]  08 40 0D C4 00 2C 02 BC
  can0  655   [8]  F7 02 60 0F 1E 00 00 DA
  can0  6C1   [1]  BE
  can0  42B   [6]  16 01 00 00 00 00
  can0  621   [7]  20 8C 0B 31 01 1C 1A
  can0  461   [6]  37 7F 00 00 00 00
  can0  3C3   [8]  10 81 00 00 80 90 2A DE
  can0  58C   [8]  00 00 2E 00 00 00 00 00
  can0  555   [8]  E8 8E 6A 00 2A 00 00 9C
  can0  2C1   [5]  00 00 80 00 02
  can0  651   [8]  C0 13 54 8F 36 55 C0 00
  can0  658   [8]  70 00 00 0E 40 00 00 00
  can0  351   [8]  00 00 00 00 00 00 00 00
  can0  470   [8]  00 00 01 64 20 00 00 00
  can0  531   [4]  C3 20 E0 03
  can0  575   [4]  47 20 00 80
  can0  359   [8]  20 01 00 00 00 6B 40 88
  can0  2C3   [1]  07
  can0  3E1   [8]  31 96 2A 1D 3D 19 81 00
  can0  436   [6]  0B 01 00 00 00 00
  can0  6C2   [6]  A0 0F 8A FF 4A FF
  can0  470   [8]  00 00 01 64 20 00 00 00
  can0  531   [4]  C3 20 F0 13
  can0  42B   [6]  16 01 00 00 00 00
  can0  151   [4]  00 A4 B8 1C
  can0  35B   [8]  08 38 0D C4 00 2C 02 BC
  can0  653   [3]  82 02 84
  can0  65F   [8]  01 46 46 41 46 4B 34 41
  can0  621   [7]  20 8C 0B 31 01 1C 1A
  can0  3C3   [8]  10 81 00 00 80 30 67 3E
  can0  58C   [8]  00 00 2E 00 00 00 00 00
  can0  555   [8]  E8 8D 6A 01 2A 00 00 9C
  can0  2C1   [5]  00 00 80 00 02
  can0  651   [8]  C0 13 54 8F 36 55 C0 00
  can0  658   [8]  70 00 00 0E 40 00 00 00
  can0  351   [8]  00 00 00 00 00 00 00 00
  can0  470   [8]  00 00 01 64 20 00 00 00
  can0  531   [4]  C3 20 00 E3
  can0  359   [8]  20 01 00 00 00 6B 40 88
  can0  3E3   [8]  00 00 9F 00 00 74 00 00
  can0  5B5   [8]  07 08 00 00 00 00 00 0F
  can0  436   [6]  0B 01 00 00 00 00
  can0  523   [8]  FA 80 00 00 00 00 00 00
  can0  2C3   [1]  07
  can0  3E1   [8]  31 96 2A 1D 3D 19 81 00
  can0  527   [8]  10 01 00 40 7D 90 96 00
  can0  6C2   [6]  A0 0F 8A FF 4A FF
  can0  635   [3]  1C 64 1A
  can0  470   [8]  00 00 01 64 20 00 00 00
  can0  531   [4]  C3 20 10 F3
  can0  42B   [6]  16 01 00 00 00 00
  can0  151   [4]  00 A4 08 AC
  can0  5C3   [2]  39 00
  can0  35B   [8]  08 44 0D C4 00 2C 02 BC
  can0  623   [8]  00 16 38 55 12 03 20 26
  can0  621   [7]  20 8C 0B 31 01 1C 1A
  can0  3C3   [8]  10 81 00 00 80 D0 BE 9E
  can0  58C   [8]  00 00 2E 00 00 00 00 00
  can0  555   [8]  E8 8C 6A 00 2A 00 00 9C
  can0  2C1   [5]  00 00 80 00 02
  can0  651   [8]  C0 13 54 8F 36 55 C0 00
  can0  658   [8]  70 00 00 0E 40 00 00 00
  can0  351   [8]  00 00 00 00 00 00 00 00
  can0  470   [8]  00 00 01 64 20 00 00 00
  can0  531   [4]  C3 20 20 C3
  can0  575   [4]  47 20 00 80
  can0  359   [8]  20 01 00 00 00 6B 40 88
  can0  436   [6]  0B 01 00 00 00 00
  can0  2C3   [1]  07
  can0  3E1   [8]  31 96 2A 1D 3D 19 81 00
  can0  6C2   [6]  A0 0F 8A FF 4A FF
  can0  363   [8]  20 41 56 20 20 20 20 20
  can0  365   [8]  54 56 2F 56 49 44 45 4F
  can0  470   [8]  00 00 01 64 20 00 00 00
  can0  531   [4]  C3 20 30 D3
  can0  42B   [6]  16 01 00 00 00 00
  can0  151   [4]  00 A4 58 FC
  can0  35B   [8]  08 44 0D C4 00 2C 02 BD
  can0  65D   [8]  4B DF A2 A3 19 06 CD 1B
  can0  65F   [8]  02 31 30 31 39 36 31 33
  can0  621   [7]  20 8C 0B 31 01 1C 1A
  can0  3C3   [8]  10 81 00 00 80 70 F3 FE
  can0  627   [8]  00 39 39 28 28 3B 3B 28
  can0  58C   [8]  00 00 2E 00 00 00 00 00
  can0  555   [8]  E8 8C 6A 83 2A 00 00 9C
  can0  2C1   [5]  00 00 80 00 02
  can0  651   [8]  C0 13 54 8F 36 55 C0 00
  can0  658   [8]  70 00 00 0E 40 00 00 00
  can0  351   [8]  00 00 00 00 00 00 00 00
  can0  60E   [2]  C7 00
  can0  436   [6]  0B 01 00 00 00 00
  can0  470   [8]  00 00 01 64 20 00 00 00
  can0  531   [4]  C3 20 40 A3
  can0  359   [8]  20 01 00 00 00 6B 40 88
  can0  5B5   [8]  0D 02 00 00 00 00 00 0F
  can0  523   [8]  FA 80 00 00 00 00 00 00
  can0  3E1   [8]  31 96 28 1D 3D 19 81 00
  can0  2C3   [1]  07
  can0  527   [8]  10 01 00 40 7D 90 96 00
  can0  6C2   [6]  A0 0F 8A FF 4A FF
  can0  635   [3]  1C 64 1A
  can0  470   [8]  00 00 01 64 20 00 00 00
  can0  531   [4]  C3 20 50 B3
  can0  42B   [6]  16 01 00 00 00 00
  can0  151   [4]  00 A4 A8 0C
  can0  35B   [8]  08 26 0D C4 00 2C 02 BD
  can0  557   [8]  61 00 00 01 1C 00 00 48
  can0  621   [7]  20 8C 0B 31 01 1C 1A
  can0  3C3   [8]  10 81 00 00 80 10 2D 5E
  can0  58C   [8]  00 00 2E 00 00 00 00 00
  can0  555   [8]  E8 8C 6A 00 2A 00 00 9C
  can0  2C1   [5]  00 00 80 00 02
  can0  651   [8]  C0 13 54 8F 36 55 C0 00
  can0  658   [8]  70 00 00 0E 40 00 00 00
  can0  6C0   [8]  2E 52 05 02 00 1C 40 09
  can0  6C0   [8]  2F 52 05 00 00 1B 40 30
  can0  351   [8]  00 00 00 00 00 00 00 00
  can0  436   [6]  0B 01 00 00 00 00
  can0  470   [8]  00 00 01 64 20 00 00 00
  can0  531   [4]  C3 20 60 83
  can0  571   [6]  A3 00 00 00 00 00
  can0  359   [8]  20 01 00 00 00 6B 40 88
  can0  575   [4]  47 20 00 80
  can0  6C0   [8]  20 57 11 26 00 01 42 0F
  can0  6C0   [8]  21 0F 73 74 3A 20 38 33
  can0  6C0   [6]  12 39 0D 02 01 72
  can0  3E1   [8]  31 96 2A 1D 3D 19 81 00
  can0  2C3   [1]  07
  can0  6C1   [1]  B3
  can0  6C2   [6]  A0 0F 8A FF 4A FF
  can0  470   [8]  00 00 01 64 20 00 00 00
  can0  531   [4]  C3 20 70 93
  can0  42B   [6]  16 01 00 00 00 00
  can0  6C0   [8]  23 52 05 02 00 30 40 09
  can0  6C0   [8]  24 52 05 00 00 1B 40 30
  can0  6C0   [8]  25 57 10 26 00 15 4C 0F
  can0  6C0   [8]  26 01 04 3A 20 20 31 30
  can0  6C0   [5]  17 35 2E 30 25
  can0  151   [4]  00 A4 F8 5C
  can0  35B   [8]  08 22 0D C4 00 2C 02 BD
  can0  655   [8]  F7 02 60 0F 1E 00 00 DA
  can0  6C1   [1]  B8
  can0  65F   [8]  00 00 00 00 00 54 52 55
  can0  621   [7]  20 8C 0B 31 01 1C 1A
  can0  3C3   [8]  10 81 00 00 80 B0 60 BE
  can0  58C   [8]  00 00 2E 00 00 00 00 00
  can0  555   [8]  E8 8D 6A 83 2A 00 00 9C
  can0  2C1   [5]  00 00 80 00 02
  can0  651   [8]  C0 13 54 8F 36 55 C0 00
  can0  658   [8]  70 00 00 0E 40 00 00 00
  can0  6C0   [2]  18 39
  can0  351   [8]  00 00 00 00 00 00 00 00
  can0  6C1   [1]  B9
  can0  436   [6]  0B 01 00 00 00 00
  can0  470   [8]  00 00 01 64 20 00 00 00
  can0  531   [4]  C3 20 80 63
  can0  359   [8]  20 01 00 00 00 6B 40 88
  can0  5B5   [8]  03 0C 00 00 00 00 00 0F
  can0  523   [8]  FA 80 00 00 00 00 00 00
  can0  3E1   [8]  31 96 2A 1D 3D 19 81 00
  can0  2C3   [1]  07
  can0  527   [8]  10 01 00 40 7D 90 96 00
  can0  6C2   [1]  A8
  can0  635   [3]  1C 64 1A
  can0  6DB   [8]  30 4E 01 00 00 00 00 00
  can0  470   [8]  00 00 01 64 20 00 00 00
  can0  531   [4]  C3 20 90 73
  can0  42B   [6]  16 01 00 00 00 00
  can0  6C1   [1]  A3
  can0  151   [4]  00 A4 48 EC
  can0  35B   [8]  08 10 0D C4 00 2C 02 BD
  can0  653   [3]  82 02 84
  can0  621   [7]  20 8C 0B 31 01 1C 1A
  can0  3C3   [8]  10 81 00 00 80 50 B9 1E
  can0  58C   [8]  00 00 2E 00 00 00 00 00
  can0  604   [8]  81 00 00 00 00 00 00 00
  can0  555   [8]  E8 8E 6A 81 2A 00 00 9C
  can0  661   [8]  83 01 12 37 00 00 00 00
  can0  2C1   [5]  00 00 80 00 02
  can0  6C0   [6]  A1 0F 8A FF 4A FF
  can0  651   [8]  C0 13 54 8F 36 55 C0 00
  can0  658   [8]  70 00 00 0E 40 00 00 00
  can0  351   [8]  00 00 00 00 00 00 00 00
  can0  470   [8]  00 00 01 64 20 00 00 00
  can0  436   [6]  0B 01 00 00 00 00
  can0  531   [4]  C3 20 A0 43
  can0  575   [4]  47 20 00 80
  can0  359   [8]  20 01 00 00 00 6B 40 88
  can0  3E1   [8]  31 96 2A 1D 3D 19 81 00
  can0  2C3   [1]  07
  can0  6C2   [6]  A0 0F 8A FF 4A FF
  can0  470   [8]  00 00 01 64 20 00 00 00
  can0  531   [4]  C3 20 B0 53
  can0  42B   [6]  16 01 00 00 00 00
  can0  151   [4]  00 A4 98 3C
  can0  5C3   [2]  39 00
  can0  35B   [8]  08 1A 0D C4 00 2C 02 BD
  can0  65F   [8]  01 46 46 41 46 4B 34 41
  can0  621   [7]  20 8C 0B 31 01 1C 1A
  can0  3C3   [8]  10 81 00 00 80 F0 F4 7E
  can0  58C   [8]  00 00 2E 00 00 00 00 00
  can0  555   [8]  E8 90 6A 00 2A 00 00 9C
  can0  2C1   [5]  00 00 80 00 02
  can0  651   [8]  C0 13 54 8F 36 55 C0 00
  can0  658   [8]  70 00 00 0E 40 00 00 00
  can0  351   [8]  00 00 00 00 00 00 00 00
  can0  470   [8]  00 00 01 64 20 00 00 00
  can0  436   [6]  0B 01 00 00 00 00
  can0  531   [4]  C3 20 C0 23
  can0  359   [8]  20 01 00 00 00 6B 40 88
  can0  5B5   [8]  09 06 00 00 00 00 00 0F
  can0  3E1   [8]  31 96 2A 1D 3D 19 81 00
  can0  523   [8]  FA 80 00 00 00 00 00 00
  can0  2C3   [1]  07
  can0  527   [8]  10 01 00 40 7D 90 96 00
  can0  6C2   [6]  A0 0F 8A FF 4A FF
  can0  635   [3]  1C 64 1A
  can0  470   [8]  00 00 01 64 20 00 00 00
  can0  531   [4]  C3 20 D0 33
  can0  42B   [6]  16 01 00 00 00 00
  can0  151   [4]  00 A4 E8 4C
  can0  35B   [8]  08 18 0D C4 00 2C 02 BD
  can0  621   [7]  20 8C 0B 31 01 1C 1A
  can0  3C3   [8]  10 81 00 00 80 90 2A DE
  can0  58C   [8]  00 00 2E 00 00 00 00 00
  can0  627   [8]  00 39 39 28 28 3B 3B 28
  can0  555   [8]  E8 91 6A 80 2A 00 00 9C
  can0  2C1   [5]  00 00 80 00 02
  can0  651   [8]  C0 13 54 8F 36 55 C0 00
  can0  658   [8]  70 00 00 0E 40 00 00 00
  can0  351   [8]  00 00 00 00 00 00 00 00
  can0  470   [8]  00 00 01 64 20 00 00 00
  can0  436   [6]  0B 01 00 00 00 00
  can0  531   [4]  C3 20 E0 03
  can0  575   [4]  47 20 00 80
  can0  359   [8]  20 01 00 00 00 6B 40 88
  can0  3E1   [8]  31 96 2A 1D 3D 19 81 00
  can0  2C3   [1]  07
  can0  6C2   [6]  A0 0F 8A FF 4A FF
  can0  470   [8]  00 00 01 64 20 00 00 00
  can0  531   [4]  C3 20 F0 13
  can0  42B   [6]  16 01 00 00 00 00
  can0  151   [4]  00 A4 38 9C
  can0  35B   [8]  08 30 0D C4 00 2C 02 BD
  can0  557   [8]  61 00 00 01 1C 00 00 48
  can0  65F   [8]  02 31 30 31 39 36 31 33
  can0  621   [7]  20 8C 0B 31 01 1C 1A
  can0  3C3   [8]  10 81 00 00 80 30 67 3E
  can0  58C   [8]  00 00 2E 00 00 00 00 00
  can0  555   [8]  E8 90 6A 02 2A 00 00 9C
  can0  2C1   [5]  00 00 80 00 02
  can0  651   [8]  C0 13 54 8F 36 55 C0 00
  can0  658   [8]  70 00 00 0E 40 00 00 00
  can0  351   [8]  00 00 00 00 00 00 00 00
  can0  470   [8]  00 00 01 64 20 00 00 00
  can0  531   [4]  C3 20 00 E3
  can0  436   [6]  0B 01 00 00 00 00
  can0  571   [6]  A4 00 00 00 00 00
  can0  359   [8]  20 01 00 00 00 6B 40 88
  can0  3E3   [8]  00 00 9F 00 00 74 00 00
  can0  5B5   [8]  0F 00 00 00 00 00 00 0F
  can0  6C0   [8]  29 52 05 02 00 30 40 09
  can0  6C0   [8]  2A 52 05 00 00 1B 40 30
  can0  3E1   [8]  31 96 2A 1D 3D 19 81 00
  can0  6C0   [8]  2B 57 10 26 00 15 4C 0F
  can0  523   [8]  FA 80 00 00 00 00 00 00
  can0  6C0   [8]  2C 01 04 3A 20 20 31 30
  can0  2C3   [1]  07
  can0  6C0   [5]  1D 38 2E 30 25
  can0  527   [8]  10 01 00 40 7D 90 96 00
  can0  6C1   [1]  BE
  can0  6C2   [6]  A0 0F 8A FF 4A FF
  can0  635   [3]  1C 64 1A
  can0  6C0   [2]  1E 39
  can0  470   [8]  00 00 01 64 20 00 00 00
  can0  6C1   [1]  BF
  can0  531   [4]  C3 20 10 F3
  can0  42B   [6]  16 01 00 00 00 00
  can0  151   [4]  00 A4 88 2C
  can0  35B   [8]  08 3A 0D C4 00 2C 02 BE
  can0  655   [8]  F7 02 60 0F 1E 00 00 DA
  can0  621   [7]  20 8C 0B 31 01 1C 1A
  can0  3C3   [8]  10 81 00 00 80 D0 BE 9E
  can0  58C   [8]  00 00 2E 00 00 00 00 00
  can0  555   [8]  E8 8F 6A 81 2A 00 00 9C
  can0  2C1   [5]  00 00 80 00 02
  can0  651   [8]  C0 13 54 8F 36 55 C0 00
  can0  658   [8]  70 00 00 0E 40 00 00 00
  can0  351   [8]  00 00 00 00 00 00 00 00
  can0  470   [8]  00 00 01 64 20 00 00 00
  can0  436   [6]  0B 01 00 00 00 00
  can0  531   [4]  C3 20 20 C3
  can0  575   [4]  47 20 00 80
  can0  359   [8]  20 01 00 00 00 6B 40 88
  can0  3E1   [8]  31 96 2A 1D 3D 19 81 00
  can0  2C3   [1]  07
  can0  6C2   [6]  A0 0F 8A FF 4A FF
  can0  363   [8]  20 41 56 20 20 20 20 20
  can0  365   [8]  54 56 2F 56 49 44 45 4F
  can0  470   [8]  00 00 01 64 20 00 00 00
  can0  531   [4]  C3 20 30 D3
  can0  42B   [6]  16 01 00 00 00 00
  can0  151   [4]  00 A4 D8 7C
  can0  35B   [8]  08 1A 0D C4 00 2C 02 BE
  can0  653   [3]  82 02 84
  can0  65F   [8]  00 00 00 00 00 54 52 55
  can0  621   [7]  20 8C 0B 31 01 1C 1A
  can0  3C3   [8]  10 81 00 00 80 70 F3 FE
  can0  58C   [8]  00 00 2E 00 00 00 00 00
  can0  555   [8]  E8 90 6A 00 2A 00 00 9C
  can0  2C1   [5]  00 00 80 00 02
  can0  651   [8]  C0 13 54 8F 36 55 C0 00
  can0  658   [8]  70 00 00 0E 40 00 00 00
  can0  351   [8]  00 00 00 00 00 00 00 00
  can0  470   [8]  00 00 01 64 20 00 00 00
  can0  531   [4]  C3 20 40 A3
  can0  436   [6]  0B 01 00 00 00 00
  can0  359   [8]  20 01 00 00 00 6B 40 88
  can0  5B5   [8]  05 0A 00 00 00 00 00 0F
  can0  3E1   [8]  31 96 2A 1D 3D 19 81 00
  can0  523   [8]  FA 80 00 00 00 00 00 00
  can0  2C3   [1]  07
  can0  527   [8]  10 01 00 40 7D 90 96 00
  can0  6C2   [6]  A0 0F 8A FF 4A FF
  can0  635   [3]  1C 64 1A
  can0  470   [8]  00 00 01 64 20 00 00 00
  can0  531   [4]  C3 20 50 B3
  can0  42B   [6]  16 01 00 00 00 00
  can0  151   [4]  00 A4 28 8C
  can0  5C3   [2]  39 00
  can0  35B   [8]  08 22 0D C4 00 2C 02 BE
  can0  623   [8]  00 16 38 56 12 03 20 26
  can0  621   [7]  20 8C 0B 31 01 1C 1A
  can0  3C3   [8]  10 81 00 00 80 10 2D 5E
  can0  58C   [8]  00 00 2E 00 00 00 00 00
  can0  555   [8]  E8 8F 6A 81 2A 00 00 9C
  can0  2C1   [5]  00 00 80 00 02
  can0  651   [8]  C0 13 54 8F 36 55 C0 00
  can0  658   [8]  70 00 00 0E 40 00 00 00
  can0  351   [8]  00 00 00 00 00 00 00 00
  can0  470   [8]  00 00 01 64 20 00 00 00
  can0  531   [4]  C3 20 60 83
  can0  436   [6]  0B 01 00 00 00 00
  can0  575   [4]  47 20 00 80
  can0  359   [8]  20 01 00 00 00 6B 40 88
  can0  3E1   [8]  31 96 2A 1D 3D 19 81 00
  can0  2C3   [1]  07
  can0  6C2   [6]  A0 0F 8A FF 4A FF
  can0  470   [8]  00 00 01 64 20 00 00 00
  can0  531   [4]  C3 20 70 93
  can0  42B   [6]  16 01 00 00 00 00
  can0  151   [4]  00 A4 78 DC
  can0  35B   [8]  08 26 0D C4 00 2C 02 BE
  can0  65D   [8]  4B DF A2 A3 19 06 4D 1C
  can0  65F   [8]  01 46 46 41 46 4B 34 41
  can0  621   [7]  20 8C 0B 31 01 1C 1A
  can0  3C3   [8]  10 81 00 00 80 B0 60 BE
  can0  627   [8]  00 39 39 28 28 3B 3B 28
  can0  58C   [8]  00 00 2E 00 00 00 00 00
  can0  555   [8]  E8 90 6A 00 2A 00 00 9C
  can0  2C1   [5]  00 00 80 00 02
  can0  651   [8]  C0 13 54 8F 36 55 C0 00
  can0  658   [8]  70 00 00 0E 40 00 00 00
  can0  351   [8]  00 00 00 00 00 00 00 00
  can0  60E   [2]  C7 00
  can0  470   [8]  00 00 01 64 20 00 00 00
  can0  531   [4]  C3 20 80 63
  can0  436   [6]  0B 01 00 00 00 00
  can0  359   [8]  20 01 00 00 00 6B 40 88
  can0  5B5   [8]  0B 04 00 00 00 00 00 0F
  can0  3E1   [8]  31 96 28 1D 3D 19 81 00
  can0  523   [8]  FA 80 00 00 00 00 00 00
  can0  2C3   [1]  07
  can0  527   [8]  10 01 00 40 7D 90 96 00
  can0  6C2   [6]  A0 0F 8A FF 4A FF
  can0  635   [3]  1C 64 1A
  can0  470   [8]  00 00 01 64 20 00 00 00
  can0  531   [4]  C3 20 90 73
  can0  42B   [6]  16 01 00 00 00 00
  can0  151   [4]  00 A4 C8 6C
  can0  35B   [8]  08 14 0D C4 00 2C 02 BE
  can0  557   [8]  61 00 00 01 1C 00 00 48
  can0  621   [7]  20 8C 0B 31 01 1C 1A
  can0  3C3   [8]  10 81 00 00 80 50 B9 1E
  can0  58C   [8]  00 00 2E 00 00 00 00 00
  can0  555   [8]  E8 90 6A 01 2A 00 00 9C
  can0  2C1   [5]  00 00 80 00 02
  can0  651   [8]  C0 13 54 8F 36 55 C0 00
  can0  658   [8]  70 00 00 0E 40 00 00 00
  can0  351   [8]  00 00 00 00 00 00 00 00
  can0  470   [8]  00 00 01 64 20 00 00 00
  can0  531   [4]  C3 20 A0 43
  can0  571   [6]  A4 00 00 00 00 00
  can0  436   [6]  0B 01 00 00 00 00
  can0  575   [4]  47 20 00 80
  can0  359   [8]  20 01 00 00 00 6B 40 88
  can0  3E1   [8]  31 96 28 1B 3D 19 81 00
  can0  2C3   [1]  07
  can0  6C2   [6]  A0 0F 8A FF 4A FF
  can0  470   [8]  00 00 01 64 20 00 00 00
  can0  531   [4]  C3 20 B0 53
  can0  42B   [6]  16 01 00 00 00 00
  can0  151   [4]  00 A4 18 BC
  can0  35B   [8]  08 1E 0D C4 00 2C 02 BE
  can0  655   [8]  F7 02 60 0F 1E 00 00 DA
  can0  65F   [8]  02 31 30 31 39 36 31 33
  can0  621   [7]  20 8C 0B 31 01 1C 1A
  can0  3C3   [8]  10 81 00 00 80 F0 F4 7E
  can0  58C   [8]  00 00 2E 00 00 00 00 00
  can0  555   [8]  E8 8F 6A 82 2A 00 00 9C
  can0  2C1   [5]  00 00 80 00 02
  can0  651   [8]  C0 13 54 8F 36 55 C0 00
  can0  658   [8]  70 00 00 0E 40 00 00 00
  can0  351   [8]  00 00 00 00 00 00 00 00
  can0  470   [8]  00 00 01 64 20 00 00 00
  can0  531   [4]  C3 20 C0 23
  can0  436   [6]  0B 01 00 00 00 00
  can0  359   [8]  20 01 00 00 00 6B 40 88
  can0  5B5   [8]  01 0E 00 00 00 00 00 0F
  can0  3E1   [8]  31 96 2A 1D 3D 19 81 00
  can0  523   [8]  FA 80 00 00 00 00 00 00
  can0  2C3   [1]  07
  can0  6C0   [1]  A3
  can0  527   [8]  10 01 00 40 7D 90 96 00
  can0  6C1   [6]  A1 0F 8A FF 4A FF
  can0  6C2   [6]  A0 0F 8A FF 4A FF
  can0  6DB   [3]  30 4F 00
  can0  635   [3]  1C 64 1A
  can0  470   [8]  00 00 01 64 20 00 00 00
  can0  531   [4]  C3 20 D0 33
  can0  42B   [6]  16 01 00 00 00 00
  can0  151   [4]  00 A4 68 CC
  can0  35B   [8]  08 22 0D C4 00 2C 02 BE
  can0  653   [3]  82 02 84
  can0  621   [7]  20 8C 0B 31 01 1C 1A
  can0  3C3   [8]  10 81 00 00 80 90 2A DE
  can0  58C   [8]  00 00 2E 00 00 00 00 00
  can0  604   [8]  81 00 00 00 00 00 00 00
  can0  555   [8]  E8 8E 6A 81 2A 00 00 9C
  can0  661   [8]  83 01 12 37 00 00 00 00
  can0  2C1   [5]  00 00 80 00 02
  can0  651   [8]  C0 13 54 8F 36 55 C0 00
  can0  658   [8]  70 00 00 0E 40 00 00 00
  can0  351   [8]  00 00 00 00 00 00 00 00
  can0  470   [8]  00 00 01 64 20 00 00 00
  can0  531   [4]  C3 20 E0 03
  can0  436   [6]  0B 01 00 00 00 00
  can0  575   [4]  47 20 00 80
  can0  359   [8]  20 01 00 00 00 6B 40 88
  can0  3E1   [8]  31 96 2A 1D 3D 19 81 00
  can0  2C3   [1]  07
  can0  6C2   [6]  A0 0F 8A FF 4A FF
  can0  470   [8]  00 00 01 64 20 00 00 00
  can0  531   [4]  C3 20 F0 13
  can0  42B   [6]  16 01 00 00 00 00
  can0  151   [4]  00 A4 B8 1C
  can0  5C3   [2]  39 00
  can0  35B   [8]  08 04 0D C4 00 2C 02 BF
  can0  65F   [8]  00 00 00 00 00 54 52 55
  can0  621   [7]  20 8C 0B 31 01 1C 1A
  can0  3C3   [8]  10 81 00 00 80 30 67 3E
  can0  58C   [8]  00 00 2E 00 00 00 00 00
  can0  555   [8]  E8 8D 6A 01 2A 00 00 9C
  can0  2C1   [5]  00 00 80 00 02
  can0  651   [8]  C0 13 54 8F 36 55 C0 00
  can0  658   [8]  70 00 00 0E 40 00 00 00
  can0  3E3   [8]  00 00 9F 00 00 74 00 00
  can0  351   [8]  00 00 00 00 00 00 00 00
  can0  470   [8]  00 00 01 64 20 00 00 00
  can0  531   [4]  C3 20 00 E3
  can0  436   [6]  0B 01 00 00 00 00
  can0  359   [8]  20 01 00 00 00 6B 40 88
  can0  3E1   [8]  31 96 2A 1D 3D 19 81 00
  can0  5B5   [8]  07 08 00 00 00 00 00 0F
  can0  523   [8]  FA 80 00 00 00 00 00 00
  can0  2C3   [1]  07
  can0  527   [8]  10 01 00 40 7D 90 96 00
  can0  6C2   [1]  A8
  can0  635   [3]  1C 64 1A
  can0  470   [8]  00 00 01 64 20 00 00 00
  can0  531   [4]  C3 20 10 F3
  can0  42B   [6]  16 01 00 00 00 00
  can0  151   [4]  00 A4 08 AC
  can0  35B   [8]  08 F0 0C C4 00 2C 02 BF
  can0  621   [7]  20 8C 0B 31 01 1C 1A
  can0  3C3   [8]  10 81 00 00 80 D0 BE 9E
  can0  58C   [8]  00 00 2E 00 00 00 00 00
  can0  627   [8]  00 39 39 28 28 3B 3B 28
  can0  555   [8]  E8 8E 6A 83 2A 00 00 9C
  can0  2C1   [5]  00 00 80 00 02
  can0  651   [8]  C0 13 54 8F 36 55 C0 00
  can0  658   [8]  70 00 00 0E 40 00 00 00
  can0  351   [8]  00 00 00 00 00 00 00 00
  can0  470   [8]  00 00 01 64 20 00 00 00
  can0  531   [4]  C3 20 20 C3
  can0  575   [4]  47 20 00 80
  can0  436   [6]  0B 01 00 00 00 00
  can0  359   [8]  20 01 00 00 00 6B 40 88
  can0  3E1   [8]  31 96 2A 1B 3D 19 81 00
  can0  2C3   [1]  07
  can0  363   [8]  20 41 56 20 20 20 20 20
  can0  365   [8]  54 56 2F 56 49 44 45 4F
  can0  6C2   [6]  A0 0F 8A FF 4A FF
  can0  470   [8]  00 00 01 64 20 00 00 00
  can0  531   [4]  C3 20 30 D3
  can0  200   [7]  5B C0 00 10 00 03 01
  can0  42B   [6]  16 01 00 00 00 00
  can0  25B   [7]  00 D0 00 03 D8 04 01
  can0  151   [4]  00 A4 58 FC
  can0  35B   [8]  08 FC 0C C4 00 2C 02 BF
  can0  557   [8]  61 00 00 01 1C 00 00 48
  can0  65F   [8]  01 46 46 41 46 4B 34 41
  can0  621   [7]  20 8C 0B 31 01 1C 1A
  can0  3C3   [8]  10 81 00 00 80 70 F3 FE
  can0  58C   [8]  00 00 2E 00 00 00 00 00
  can0  555   [8]  E8 90 6A 02 2A 00 00 9C
  can0  2C1   [5]  00 00 80 00 02
  can0  651   [8]  C0 13 54 8F 36 55 C0 00
  can0  436   [6]  0B 01 00 00 00 00
  can0  658   [8]  70 00 00 0E 40 00 00 00
  can0  4D8   [6]  A0 0F 8A FF 32 FF
  can0  351   [8]  00 00 00 00 00 00 00 00
  can0  470   [8]  00 00 01 64 20 00 00 00
  can0  531   [4]  C3 20 40 A3
  can0  571   [6]  A3 00 00 00 00 00
  can0  300   [6]  A1 0F 8A FF 4A FF
  can0  359   [8]  20 01 00 00 00 6B 40 88
  can0  3E1   [8]  31 96 28 1D 3D 19 81 00
  can0  5B5   [8]  0D 02 00 00 00 00 00 0F
  can0  523   [8]  FA 80 00 00 00 00 00 00
  can0  2C3   [1]  07
  can0  527   [8]  10 01 00 40 7D 90 96 00
  can0  6C0   [8]  2F 52 05 02 00 30 40 09
  can0  6C0   [8]  20 52 05 00 00 1B 40 30
  can0  6C0   [8]  21 57 10 26 00 15 4C 0F
  can0  635   [3]  1C 64 1A
  can0  6C0   [8]  22 01 04 3A 20 20 31 30
  can0  42B   [6]  16 01 00 00 00 00
  can0  6C0   [5]  13 35 2E 38 25
  can0  6C2   [6]  A0 0F 8A FF 4A FF
  can0  470   [8]  00 00 01 64 20 00 00 00
  can0  531   [4]  C3 20 50 B3
  can0  6C1   [1]  B4
  can0  151   [4]  00 A4 A8 0C
  can0  35B   [8]  08 0C 0D C4 00 2C 02 BF
  can0  655   [8]  F7 02 60 0F 1E 00 00 DA
  can0  621   [7]  20 8C 0B 31 01 1C 1A
  can0  6C0   [2]  14 39
  can0  3C3   [8]  10 81 00 00 80 10 2D 5E
  can0  58C   [8]  00 00 2E 00 00 00 00 00
  can0  6C1   [1]  B5
  can0  555   [8]  E8 91 6A 00 2A 00 00 9C
  can0  2C1   [5]  00 00 80 00 02
  can0  651   [8]  C0 13 54 8F 36 55 C0 00
  can0  436   [6]  0B 01 00 00 00 00
  can0  658   [8]  70 00 00 0E 40 00 00 00
  can0  351   [8]  00 00 00 00 00 00 00 00
  can0  470   [8]  00 00 01 64 20 00 00 00
  can0  531   [4]  C3 20 60 83
  can0  575   [4]  47 20 00 80
  can0  359   [8]  20 01 00 00 00 6B 40 88
  can0  3E1   [8]  31 96 28 1B 3D 19 81 00
  can0  2C3   [1]  07
  can0  42B   [6]  16 01 00 00 00 00
  can0  6C2   [6]  A0 0F 8A FF 4A FF
  can0  470   [8]  00 00 01 64 20 00 00 00
  can0  531   [4]  C3 20 70 93
  can0  151   [4]  00 A4 F8 5C
  can0  35B   [8]  08 02 0D C4 00 2C 02 BF
  can0  653   [3]  82 02 84
  can0  65F   [8]  02 31 30 31 39 36 31 33
  can0  621   [7]  20 8C 0B 31 01 1C 1A
  can0  3C3   [8]  10 81 00 00 80 B0 60 BE
  can0  58C   [8]  00 00 2E 00 00 00 00 00
  can0  4D8   [5]  10 00 02 10 89
  can0  436   [6]  0B 01 00 00 00 00
  can0  555   [8]  E8 91 6A 01 2A 00 00 9C
  can0  2C1   [5]  00 00 80 00 02
  can0  651   [8]  C0 13 54 8F 36 55 C0 00
  can0  300   [1]  B1
  can0  658   [8]  70 00 00 0E 40 00 00 00
  can0  351   [8]  00 00 00 00 00 00 00 00
  can0  470   [8]  00 00 01 64 20 00 00 00
  can0  531   [4]  C3 20 80 63
  can0  359   [8]  20 01 00 00 00 6B 40 88
  can0  300   [5]  10 00 02 50 89
  can0  3E1   [8]  31 96 2A 1D 3D 19 81 00
  can0  5B5   [8]  03 0C 00 00 00 00 00 0F
  can0  4D8   [1]  B1
  can0  523   [8]  FA 80 00 00 00 00 00 00
  can0  2C3   [1]  07
  can0  527   [8]  10 01 00 40 7D 90 96 00
  can0  42B   [6]  16 01 00 00 00 00
  can0  635   [3]  1C 64 1A
  can0  6C2   [6]  A0 0F 8A FF 4A FF
  can0  470   [8]  00 00 01 64 20 00 00 00
  can0  531   [4]  C3 20 90 73
  can0  151   [4]  00 A4 48 EC
  can0  35B   [8]  08 18 0D C4 00 2C 02 BF
  can0  623   [8]  00 16 38 57 12 03 20 26
  can0  5C3   [2]  39 00
  can0  621   [7]  20 8C 0B 31 01 1C 1A
  can0  436   [6]  0B 01 00 00 00 00
  can0  3C3   [8]  10 81 00 00 80 50 B9 1E
  can0  58C   [8]  00 00 2E 00 00 00 00 00
  can0  555   [8]  E8 91 6A 00 2A 00 00 9C
  can0  2C1   [5]  00 00 80 00 02
  can0  651   [8]  C0 13 54 8F 36 55 C0 00
  can0  658   [8]  70 00 00 0E 40 00 00 00
  can0  351   [8]  00 00 00 00 00 00 00 00
  can0  470   [8]  00 00 01 64 20 00 00 00
  can0  531   [4]  C3 20 A0 43
  can0  575   [4]  47 20 00 80
  can0  359   [8]  20 01 00 00 00 6B 40 88
  can0  3E1   [8]  31 96 2A 1B 3D 19 81 00
  can0  4D8   [5]  11 00 02 1A 9B
  can0  300   [1]  B2
  can0  2C3   [1]  07
  can0  42B   [6]  16 01 00 00 00 00
  can0  300   [8]  21 00 30 5A 9B 38 4A 30
  can0  300   [8]  22 30 33 35 31 39 33 46
  can0  6C2   [6]  A0 0F 8A FF 4A FF
  can0  300   [8]  23 20 20 B0 33 32 30 03
  can0  470   [8]  00 00 01 64 20 00 00 00
  can0  531   [4]  C3 20 B0 53
  can0  300   [8]  24 09 39 DC 0C CC C8 04
  can0  151   [4]  00 A4 98 3C
  can0  300   [8]  25 F0 41 52 4E 53 2D 45
  can0  436   [6]  0B 01 00 00 00 00
  can0  35B   [8]  08 18 0D C4 00 2C 02 BF
  can0  65D   [8]  4B DF A2 A3 19 06 CD 1C
  can0  65F   [8]  00 00 00 00 00 54 52 55
  can0  621   [7]  20 8C 0B 31 01 1C 1A
  can0  300   [8]  26 20 50 55 20 55 53 20
  can0  3C3   [8]  10 81 00 00 80 F0 F4 7E
  can0  58C   [8]  00 00 2E 00 00 00 00 00
  can0  627   [8]  00 39 39 28 28 3B 3B 28
  can0  555   [8]  E8 92 6A 80 2A 00 00 9C
  can0  300   [8]  27 20 20 20 20 48 30 37
  can0  2C1   [5]  00 00 80 00 02
  can0  651   [8]  C0 13 54 8F 36 55 C0 00
  can0  658   [8]  70 00 00 0E 40 00 00 00
  can0  300   [2]  18 20
  can0  351   [8]  00 00 00 00 00 00 00 00
  can0  4D8   [1]  B9
  can0  60E   [2]  C7 00
  can0  470   [8]  00 00 01 64 20 00 00 00
  can0  531   [4]  C3 20 C0 23
  can0  3E1   [8]  31 95 28 1B 3D 19 81 00
  can0  359   [8]  20 01 00 00 00 6B 40 88
  can0  5B5   [8]  09 06 00 00 00 00 00 0F
  can0  42B   [6]  16 01 00 00 00 00
  can0  523   [8]  FA 80 00 00 00 00 00 00
  can0  2C3   [1]  07
  can0  527   [8]  10 01 00 40 7D 90 95 00
  can0  635   [3]  1C 64 1A
  can0  6C2   [6]  A0 0F 8A FF 4A FF
  can0  470   [8]  00 00 01 64 20 00 00 00
  can0  531   [4]  C3 20 D0 33
  can0  436   [6]  0B 01 00 00 00 00
  can0  151   [4]  00 A4 E8 4C
  can0  35B   [8]  08 12 0D C4 00 2C 02 C0
  can0  557   [8]  61 00 00 01 1C 00 00 48
  can0  621   [7]  20 8C 0B 31 01 1C 1A
  can0  3C3   [8]  10 81 00 00 80 90 2A DE
  can0  58C   [8]  00 00 2E 00 00 00 00 00
  can0  555   [8]  E8 92 6A 03 2A 00 00 9C
  can0  2C1   [5]  00 00 80 00 02
  can0  651   [8]  C0 13 54 8F 36 55 C0 00
  can0  658   [8]  70 00 00 0E 40 00 00 00
  can0  351   [8]  00 00 00 00 00 00 00 00
  can0  470   [8]  00 00 01 64 20 00 00 00
  can0  531   [4]  C3 20 E0 03
  can0  571   [6]  A3 00 00 00 00 00
  can0  42B   [6]  16 01 00 00 00 00
  can0  3E1   [8]  31 95 28 1B 3D 19 81 00
  can0  359   [8]  20 01 00 00 00 6B 40 88
  can0  575   [4]  47 20 00 80
  can0  2C3   [1]  07
  can0  6C0   [8]  25 52 05 02 00 30 40 09
  can0  6C0   [8]  26 52 05 00 00 1B 40 30
  can0  6C0   [8]  27 57 10 26 00 15 4C 0F
  can0  6C0   [8]  28 01 04 3A 20 20 31 30
  can0  6C0   [5]  19 38 2E 38 25
  can0  436   [6]  0B 01 00 00 00 00
  can0  6C2   [6]  A0 0F 8A FF 4A FF
  can0  470   [8]  00 00 01 64 20 00 00 00
  can0  531   [4]  C3 20 F0 13
  can0  6C1   [1]  BA
  can0  151   [4]  00 A4 38 9C
  can0  35B   [8]  08 1E 0D C4 00 2C 02 C0
  can0  655   [8]  F7 02 60 0F 1E 00 00 DA
  can0  65F   [8]  01 46 46 41 46 4B 34 41
  can0  6C0   [2]  1A 39
  can0  621   [7]  20 8C 0B 31 01 1C 1A
  can0  3C3   [8]  10 81 00 00 80 30 67 3E
  can0  58C   [8]  00 00 2E 00 00 00 00 00
  can0  6C1   [1]  BB
  can0  555   [8]  E8 92 6A 82 2A 00 00 9C
  can0  2C1   [5]  00 00 80 00 02
  can0  651   [8]  C0 13 54 8F 36 55 C0 00
  can0  3E3   [8]  00 00 9F 00 00 74 00 00
  can0  42B   [6]  16 01 00 00 00 00
  can0  658   [8]  70 00 00 0E 40 00 00 00
  can0  4D8   [1]  A3
  can0  351   [8]  00 00 00 00 00 00 00 00
  can0  470   [8]  00 00 01 64 20 00 00 00
  can0  531   [4]  C3 20 00 E3
  can0  3E1   [8]  31 95 2A 1D 3D 19 81 00
  can0  359   [8]  20 01 00 00 00 6B 40 88
  can0  300   [6]  A1 0F 8A FF 4A FF
  can0  5B5   [8]  0F 00 00 00 00 00 00 0F
  can0  523   [8]  FA 80 00 00 00 00 00 00
  can0  2C3   [1]  07
  can0  527   [8]  10 01 00 40 7D 90 95 00
  can0  6DB   [4]  30 5B 40 01
  can0  436   [6]  0B 01 00 00 00 00
  can0  635   [3]  1C 64 1A
  can0  6C2   [6]  A0 0F 8A FF 4A FF
  can0  470   [8]  00 00 01 64 20 00 00 00
  can0  531   [4]  C3 20 10 F3
  can0  151   [4]  00 A4 88 2C
  can0  35B   [8]  08 1E 0D C4 00 2C 02 C0
  can0  653   [3]  82 02 84
  can0  6C1   [1]  A3
  can0  621   [7]  20 8C 0B 31 01 1C 1A
  can0  3C3   [8]  10 81 00 00 80 D0 BE 9E
  can0  58C   [8]  00 00 2E 00 00 00 00 00
  can0  42B   [6]  16 01 00 00 00 00
  can0  555   [8]  E8 91 6A 00 2A 00 00 9C
  can0  604   [8]  81 00 00 00 00 00 00 00
  can0  661   [8]  83 01 12 37 00 00 00 00
  can0  2C1   [5]  00 00 80 00 02
  can0  651   [8]  C0 13 54 8F 36 55 C0 00
  can0  658   [8]  70 00 00 0E 40 00 00 00
  can0  6C0   [6]  A1 0F 8A FF 4A FF
  can0  351   [8]  00 00 00 00 00 00 00 00
  can0  470   [8]  00 00 01 64 20 00 00 00
  can0  3E1   [8]  31 95 28 1B 3D 19 81 00
  can0  531   [4]  C3 20 20 C3
  can0  575   [4]  47 20 00 80
  can0  359   [8]  20 01 00 00 00 6B 40 88
  can0  2C3   [1]  07
  can0  436   [6]  0B 01 00 00 00 00
  can0  363   [8]  20 41 56 20 20 20 20 20
  can0  365   [8]  54 56 2F 56 49 44 45 4F
  can0  6C2   [6]  A0 0F 8A FF 4A FF
  can0  470   [8]  00 00 01 64 20 00 00 00
  can0  531   [4]  C3 20 30 D3
  can0  4D8   [7]  12 00 04 31 B8 00 00
  can0  151   [4]  00 A4 D8 7C
  can0  300   [1]  B3
  can0  35B   [8]  08 20 0D C4 00 2C 02 C0
  can0  5C3   [2]  39 00
  can0  65F   [8]  02 31 30 31 39 36 31 33
  can0  42B   [6]  16 01 00 00 00 00
  can0  621   [7]  20 8C 0B 31 01 1C 1A
  can0  300   [8]  29 00 0E 71 B8 01 03 01
  can0  3C3   [8]  10 81 00 00 80 70 F3 FE
  can0  58C   [8]  00 00 2E 00 00 00 00 00
  can0  555   [8]  E8 8F 6A 01 2A 00 00 9C
  can0  300   [8]  2A 06 01 02 01 07 01 04
  can0  2C1   [5]  00 00 80 00 02
  can0  651   [8]  C0 13 54 8F 36 55 C0 00
  can0  658   [8]  70 00 00 0E 40 00 00 00
  can0  300   [3]  1B 01 08
  can0  351   [8]  00 00 00 00 00 00 00 00
  can0  4D8   [1]  BC
  can0  470   [8]  00 00 01 64 20 00 00 00
  can0  3E1   [8]  31 95 2A 1D 3D 19 81 00
  can0  531   [4]  C3 20 40 A3
  can0  359   [8]  20 01 00 00 00 6B 40 88
  can0  5B5   [8]  05 0A 00 00 00 00 00 0F
  can0  523   [8]  FA 80 00 00 00 00 00 00
  can0  436   [6]  0B 01 00 00 00 00
  can0  2C3   [1]  07
  can0  527   [8]  10 01 00 40 7D 90 95 00
  can0  635   [3]  1C 64 1A
  can0  6C2   [6]  A0 0F 8A FF 4A FF
  can0  470   [8]  00 00 01 64 20 00 00 00
  can0  531   [4]  C3 20 50 B3
  can0  42B   [6]  16 01 00 00 00 00
  can0  151   [4]  00 A4 28 8C
  can0  35B   [8]  08 18 0D C4 00 2C 02 C0
  can0  621   [7]  20 8C 0B 31 01 1C 1A
  can0  3C3   [8]  10 81 00 00 80 10 2D 5E
  can0  58C   [8]  00 00 2E 00 00 00 00 00
  can0  627   [8]  00 39 39 28 28 3B 3B 28
  can0  555   [8]  E8 8E 6A 84 2A 00 00 9C
  can0  2C1   [5]  00 00 80 00 02
  can0  651   [8]  C0 13 54 8F 36 55 C0 00
  can0  658   [8]  70 00 00 0E 40 00 00 00
