can0 557 [8] E5 00 00 00 18 00 00 CA '........'		
can0 621 [7] 20 6D 70 31 01 06 00 ' mp1...'		
can0 43A [6] 0B 01 00 00 00 00 '......'		
can0 3C3 [8] AA 00 00 00 80 B0 97 A5 '........'		
can0 555 [8] E8 5A 69 02 29 00 00 76 '.Zi.)..v'		
can0 651 [8] C0 13 54 8F 36 55 C0 00 '..T.6U..'		
can0 658 [8] 70 00 00 0E 40 00 00 00 'p...@...'		
can0 6C2 [1] A8 '.'		
can0 351 [8] 00 00 00 00 00 00 00 00 '........'		
can0 470 [8] 00 00 02 06 20 00 00 00 '.... ...'		
can0 359 [8] 20 01 00 00 00 6B 40 88 ' ....k@.'		
can0 531 [4] C3 20 00 E3 '. ..'		
can0 3E1 [8] 30 7E 1F 0F 4B 19 81 00 '0~..K...'		
can0 5B5 [8] 08 07 00 00 00 00 00 0F '........'		
can0 523 [8] FA 80 00 00 00 00 00 00 '........'		
can0 527 [8] 10 01 00 40 7D 7D 7E 00 '...@}}~.'		
can0 635 [3] 06 06 00 '...'		
can0 42B [6] 0F 01 00 00 00 00 '......'		
can0 2C1 [5] 00 00 00 00 02 '.....'		
can0 6C4 [1] A3 '.'		
can0 6C5 [6] A1 0F 8A FF 4A FF '....J.'		
can0 58C [8] 00 00 2E 00 00 00 00 00 '........'		
can0 470 [8] 00 00 02 06 20 00 00 00 '.... ...'		
can0 531 [4] C3 20 10 F3 '. ..'		
can0 575 [4] 47 00 00 80 'G...'		
can0 365 [8] 54 56 2F 56 49 44 45 4F 'TV/VIDEO'		
can0 151 [4] 00 A4 D8 7C '...|'		
can0 2C3 [1] 07 '.'		
can0 42F [6] 16 01 00 00 00 00 '......'		
can0 35B [8] 08 36 0D AC 00 2C 02 EE '.6...,..'		
can0 655 [8] F7 02 E0 0F 1E 00 00 DA '........'		
can0 621 [7] 20 6D 70 31 01 06 00 ' mp1...'		
can0 3C3 [8] AA 00 00 00 80 50 4E 05 '.....PN.'		
can0 555 [8] E8 5A 69 00 29 00 00 76 '.Zi.)..v'		
can0 651 [8] C0 13 54 8F 36 55 C0 00 '..T.6U..'		
can0 65F [8] 01 46 46 41 46 4B 34 41 '.FFAFK4A'		
can0 658 [8] 70 00 00 0E 40 00 00 00 'p...@...'		
can0 351 [8] 00 00 00 00 00 00 00 00 '........'		
can0 627 [8] 00 39 39 28 28 3B 3B 28 '.99((;;('		
can0 470 [8] 00 00 02 06 20 00 00 00 '.... ...'		
can0 359 [8] 20 01 00 00 00 6B 40 88 ' ....k@.'		
can0 531 [4] C3 20 20 C3 '. .'		
can0 3E1 [8] 30 7E 1E 0F 4B 19 81 00 '0~..K...'		
can0 436 [6] 1A 01 00 00 00 00 '......'		
can0 6C2 [6] A0 0F 8A FF 4A FF '....J.'		
can0 60E [2] C7 00 '..'		
can0 6DB [3] 30 44 0A '0D.'		
can0 602 [8] 09 12 30 00 00 00 00 00 '..0.....'		
can0 2C1 [5] 00 00 00 00 02 '.....'		
can0 58C [8] 00 00 2E 00 00 00 00 00 '........'		
can0 470 [8] 00 00 02 06 20 00 00 00 '.... ...'		
can0 43A [6] 0B 01 00 00 00 00 '......'		
can0 531 [4] C3 20 30 D3 '. 0.'		
can0 151 [4] 00 A4 28 8C '..(.'		
can0 2C3 [1] 07 '.'		
can0 35B [8] 08 36 0D AC 00 2C 02 EF '.6...,..'		
can0 653 [3] 82 02 84 '...'		
can0 621 [7] 20 6D 70 31 01 06 00 ' mp1...'		
can0 3C3 [8] AA 00 00 00 80 F0 03 65 '.......e'		
can0 555 [8] E8 59 69 81 29 00 00 76 '.Yi.)..v'		
can0 651 [8] C0 13 54 8F 36 55 C0 00 '..T.6U..'		
can0 658 [8] 70 00 00 0E 40 00 00 00 'p...@...'		
can0 351 [8] 00 00 00 00 00 00 00 00 '........'		
can0 42B [6] 0F 01 00 00 00 00 '......'		
can0 470 [8] 00 00 02 06 20 00 00 00 '.... ...'		
can0 359 [8] 20 01 00 00 00 6B 40 88 ' ....k@.'		
can0 531 [4] C3 20 40 A3 '. @.'		
can0 3E1 [8] 30 7E 1F 10 4B 19 81 00 '0~..K...'		
can0 5B5 [8] 0E 01 00 00 00 00 00 0F '........'		
can0 363 [8] 20 20 20 20 20 20 20 20 ' '		
can0 6C2 [6] A0 0F 8A FF 4A FF '....J.'		
can0 523 [8] FA 80 00 00 00 00 00 00 '........'		
can0 527 [8] 10 01 00 40 7D 7D 7E 00 '...@}}~.'		
can0 635 [3] 06 06 00 '...'		
can0 2C1 [5] 00 00 00 00 02 '.....'		
can0 5C3 [2] 39 00 '9.'		
can0 42F [6] 16 01 00 00 00 00 '......'		
can0 58C [8] 00 00 2E 00 00 00 00 00 '........'		
can0 470 [8] 00 00 02 06 20 00 00 00 '.... ...'		
can0 531 [4] C3 20 50 B3 '. P.'		
can0 575 [4] 47 00 00 80 'G...'		
can0 151 [4] 00 A4 78 DC '..x.'		
can0 2C3 [1] 07 '.'		
can0 35B [8] 08 2E 0D AC 00 2C 02 EF '.....,..'		
can0 623 [8] 00 22 04 00 24 02 20 26 '."..$. &'		
can0 621 [7] 20 6D 70 31 01 06 00 ' mp1...'		
can0 3C3 [8] AA 00 00 00 80 90 DD C5 '........'		
can0 555 [8] E8 5A 69 00 29 00 00 76 '.Zi.)..v'		
can0 651 [8] C0 13 54 8F 36 55 C0 00 '..T.6U..'		
can0 65F [8] 02 31 30 31 39 36 31 33 '.1019613'		
can0 658 [8] 70 00 00 0E 40 00 00 00 'p...@...'		
can0 351 [8] 00 00 00 00 00 00 00 00 '........'		
can0 436 [6] 1A 01 00 00 00 00 '......'		
can0 470 [8] 00 00 02 06 20 00 00 00 '.... ...'		
can0 359 [8] 20 01 00 00 00 6B 40 88 ' ....k@.'		
can0 531 [4] C3 20 60 83 '. `.'		
can0 3E1 [8] 30 7E 1F 0F 4B 19 81 00 '0~..K...'		
can0 6C2 [6] A0 0F 8A FF 4A FF '....J.'		
can0 2C1 [5] 00 00 00 00 02 '.....'		
can0 43A [6] 0B 01 00 00 00 00 '......'		
can0 6D0 [1] A3 '.'		
can0 58C [8] 00 00 2E 00 00 00 00 00 '........'		
can0 6D1 [6] A1 0F 8A FF 4A FF '....J.'		
can0 470 [8] 00 00 02 06 20 00 00 00 '.... ...'		
can0 531 [4] C3 20 70 93 '. p.'		
can0 571 [6] B2 00 00 00 00 00 '......'		
can0 151 [4] 00 A4 C8 6C '...l'		
can0 2C3 [1] 07 '.'		
can0 35B [8] 08 FC 0C AC 00 2C 02 EF '.....,..'		
can0 65D [8] 35 DD 9F A3 11 6C 09 00 '5....l..'		
can0 621 [7] 20 6D 70 31 01 06 00 ' mp1...'		
can0 3C3 [8] AA 00 00 00 80 30 90 25 '.....0.%'		
can0 555 [8] E8 5B 69 82 29 00 00 76 '.[i.)..v'		
can0 651 [8] C0 13 54 8F 36 55 C0 00 '..T.6U..'		
can0 42B [6] 0F 01 00 00 00 00 '......'		
can0 658 [8] 70 00 00 0E 40 00 00 00 'p...@...'		
can0 351 [8] 00 00 00 00 00 00 00 00 '........'		
can0 470 [8] 00 00 02 06 20 00 00 00 '.... ...'		
can0 359 [8] 20 01 00 00 00 6B 40 88 ' ....k@.'		
can0 531 [4] C3 20 80 63 '. .c'		
can0 3E1 [8] 30 7E 1F 10 4B 19 81 00 '0~..K...'		
can0 5B5 [8] 04 0B 00 00 00 00 00 0F '........'		
can0 6C2 [6] A0 0F 8A FF 4A FF '....J.'		
can0 523 [8] FA 80 00 00 00 00 00 00 '........'		
can0 527 [8] 10 01 00 40 7D 7D 7E 00 '...@}}~.'		
can0 635 [3] 06 06 00 '...'		
can0 42F [6] 16 01 00 00 00 00 '......'		
can0 2C1 [5] 00 00 00 00 02 '.....'		
can0 5AB [2] 81 00 '..'		
can0 58C [8] 00 00 2E 00 00 00 00 00 '........'		
can0 470 [8] 00 00 02 06 20 00 00 00 '.... ...'		
can0 531 [4] C3 20 90 73 '. .s'		
can0 575 [4] 47 00 00 80 'G...'		
can0 151 [4] 00 A4 18 BC '....'		
can0 2C3 [1] 07 '.'		
can0 35B [8] 08 14 0D AC 00 2C 02 EF '.....,..'		
can0 557 [8] E5 00 00 00 18 00 00 CA '........'		
can0 621 [7] 20 6D 70 31 01 06 00 ' mp1...'		
can0 3C3 [8] AA 00 00 00 80 D0 49 85 '......I.'		
can0 436 [6] 1A 01 00 00 00 00 '......'		
can0 555 [8] E8 5C 69 01 29 00 00 76 '.\i.)..v'		
can0 651 [8] C0 13 54 8F 36 55 C0 00 '..T.6U..'		
can0 65F [8] 00 00 00 00 00 54 52 55 '.....TRU'		
can0 658 [8] 70 00 00 0E 40 00 00 00 'p...@...'		
can0 351 [8] 00 00 00 00 00 00 00 00 '........'		
can0 470 [8] 00 00 02 06 20 00 00 00 '.... ...'		
can0 359 [8] 20 01 00 00 00 6B 40 88 ' ....k@.'		
can0 531 [4] C3 20 A0 43 '. .C'		
can0 3E1 [8] 30 7E 1E 0F 4B 19 81 00 '0~..K...'		
can0 6C2 [6] A0 0F 8A FF 4A FF '....J.'		
can0 43A [6] 0B 01 00 00 00 00 '......'		
can0 2C1 [5] 00 00 00 00 02 '.....'		
can0 58C [8] 00 00 2E 00 00 00 00 00 '........'		
can0 470 [8] 00 00 02 06 20 00 00 00 '.... ...'		
can0 531 [4] C3 20 B0 53 '. .S'		
can0 151 [4] 00 A4 68 CC '..h.'		
can0 2C3 [1] 07 '.'		
can0 35B [8] 08 12 0D AC 00 2C 02 EF '.....,..'		
can0 655 [8] F7 02 E0 0F 1E 00 00 DA '........'		
can0 42B [6] 0F 01 00 00 00 00 '......'		
can0 621 [7] 20 6D 70 31 01 06 00 ' mp1...'		
can0 3E3 [8] 00 00 88 01 00 74 00 00 '.....t..'		
can0 3C3 [8] AA 00 00 00 80 70 04 E5 '.....p..'		
can0 555 [8] E8 5B 69 00 29 00 00 76 '.[i.)..v'		
can0 651 [8] C0 13 54 8F 36 55 C0 00 '..T.6U..'		
can0 658 [8] 70 00 00 0E 40 00 00 00 'p...@...'		
can0 351 [8] 00 00 00 00 00 00 00 00 '........'		
can0 627 [8] 00 39 39 28 28 3B 3B 28 '.99((;;('		
can0 470 [8] 00 00 02 06 20 00 00 00 '.... ...'		
can0 359 [8] 20 01 00 00 00 6B 40 88 ' ....k@.'		
can0 3E1 [8] 30 7E 1E 0F 4B 19 81 00 '0~..K...'		
can0 531 [4] C3 20 C0 23 '. .#'		
can0 5B5 [8] 0A 05 00 00 00 00 00 0F '........'		
can0 6C2 [6] A0 0F 8A FF 4A FF '....J.'		
can0 523 [8] FA 80 00 00 00 00 00 00 '........'		
can0 527 [8] 10 01 00 40 7D 7D 7E 00 '...@}}~.'		
can0 42F [6] 16 01 00 00 00 00 '......'		
can0 635 [3] 06 06 00 '...'		
can0 602 [8] 09 12 30 00 00 00 00 00 '..0.....'		
can0 2C1 [5] 00 00 00 00 02 '.....'		
can0 665 [7] 80 25 00 00 00 00 10 '.%.....'		
can0 58C [8] 00 00 2E 00 00 00 00 00 '........'		
can0 470 [8] 00 00 02 06 20 00 00 00 '.... ...'		
can0 531 [4] C3 20 D0 33 '. .3'		
can0 575 [4] 47 00 00 80 'G...'		
can0 151 [4] 00 A4 B8 1C '....'		
can0 2C3 [1] 07 '.'		
can0 35B [8] 08 22 0D AC 00 2C 02 EF '."...,..'		
can0 436 [6] 1A 01 00 00 00 00 '......'		
can0 653 [3] 82 02 84 '...'		
can0 621 [7] 20 6D 70 31 01 06 00 ' mp1...'		
can0 3C3 [8] AA 00 00 00 80 10 DA 45 '.......E'		
can0 555 [8] E8 5A 69 80 29 00 00 76 '.Zi.)..v'		
can0 651 [8] C0 13 54 8F 36 55 C0 00 '..T.6U..'		
can0 65F [8] 01 46 46 41 46 4B 34 41 '.FFAFK4A'		
can0 658 [8] 70 00 00 0E 40 00 00 00 'p...@...'		
can0 351 [8] 00 00 00 00 00 00 00 00 '........'		
can0 470 [8] 00 00 02 06 20 00 00 00 '.... ...'		
can0 359 [8] 20 01 00 00 00 6B 40 88 ' ....k@.'		
can0 3E1 [8] 30 7E 1E 0F 4B 19 81 00 '0~..K...'		
can0 531 [4] C3 20 E0 03 '. ..'		
can0 6C2 [6] A0 0F 8A FF 4A FF '....J.'		
can0 43A [6] 0B 01 00 00 00 00 '......'		
can0 2C1 [5] 00 00 00 00 02 '.....'		
can0 5C3 [2] 39 00 '9.'		
can0 58C [8] 00 00 2E 00 00 00 00 00 '........'		
can0 470 [8] 00 00 02 06 20 00 00 00 '.... ...'		
can0 531 [4] C3 20 F0 13 '. ..'		
can0 42B [6] 0F 01 00 00 00 00 '......'		
can0 151 [4] 00 A4 08 AC '....'		
can0 2C3 [1] 07 '.'		
can0 6C0 [1] A3 '.'		
can0 35B [8] 08 08 0D AC 00 2C 02 EF '.....,..'		
can0 6C1 [6] A1 0F 8A FF 4A FF '....J.'		
can0 621 [7] 20 6D 70 31 01 06 00 ' mp1...'		
can0 3C3 [8] AA 00 00 00 80 B0 97 A5 '........'		
can0 604 [8] 81 00 00 00 00 00 00 00 '........'		
can0 661 [8] 83 01 12 37 00 00 00 00 '...7....'		
can0 555 [8] E8 5A 69 80 29 00 00 76 '.Zi.)..v'		
can0 651 [8] C0 13 54 8F 36 55 C0 00 '..T.6U..'		
can0 658 [8] 70 00 00 0E 40 00 00 00 'p...@...'		
can0 351 [8] 00 00 00 00 00 00 00 00 '........'		
can0 3E1 [8] 30 7E 1E 0F 4B 19 81 00 '0~..K...'		
can0 359 [8] 20 01 00 00 00 6B 40 88 ' ....k@.'		
can0 470 [8] 00 00 02 06 20 00 00 00 '.... ...'		
can0 531 [4] C3 20 00 E3 '. ..'		
can0 662 [8] 81 00 00 00 00 00 00 00 '........'		
can0 5B5 [8] 00 0F 00 00 00 00 00 0F '........'		
can0 6C2 [6] A0 0F 8A FF 4A FF '....J.'		
can0 523 [8] FA 80 00 00 00 00 00 00 '........'		
can0 42F [6] 16 01 00 00 00 00 '......'		
can0 527 [8] 10 01 00 40 7D 7D 7E 00 '...@}}~.'		
can0 635 [3] 06 06 00 '...'		
can0 2C1 [5] 00 00 00 00 02 '.....'		
can0 58C [8] 00 00 2E 00 00 00 00 00 '........'		
can0 470 [8] 00 00 02 06 20 00 00 00 '.... ...'		
can0 531 [4] C3 20 10 F3 '. ..'		
can0 571 [6] B2 00 00 00 00 00 '......'		
can0 575 [4] 47 00 00 80 'G...'		
can0 436 [6] 1A 01 00 00 00 00 '......'		
can0 365 [8] 54 56 2F 56 49 44 45 4F 'TV/VIDEO'		
can0 151 [4] 00 A4 58 FC '..X.'		
can0 2C3 [1] 07 '.'		
can0 35B [8] 08 1C 0D AC 00 2C 02 EF '.....,..'		
can0 621 [7] 20 6D 70 31 01 06 00 ' mp1...'		
can0 3C3 [8] AA 00 00 00 80 50 4E 05 '.....PN.'		
can0 555 [8] E8 5C 69 02 29 00 00 76 '.\i.)..v'		
can0 651 [8] C0 13 54 8F 36 55 C0 00 '..T.6U..'		
can0 65F [8] 02 31 30 31 39 36 31 33 '.1019613'		
can0 658 [8] 70 00 00 0E 40 00 00 00 'p...@...'		
can0 351 [8] 00 00 00 00 00 00 00 00 '........'		
can0 3E1 [8] 30 7E 1F 0F 4B 19 81 00 '0~..K...'		
can0 470 [8] 00 00 02 06 20 00 00 00 '.... ...'		
can0 359 [8] 20 01 00 00 00 6B 40 88 ' ....k@.'		
can0 43A [6] 0B 01 00 00 00 00 '......'		
can0 531 [4] C3 20 20 C3 '. .'		
can0 6C2 [6] A0 0F 8A FF 4A FF '....J.'		
can0 2C1 [5] 00 00 00 00 02 '.....'		
can0 58C [8] 00 00 2E 00 00 00 00 00 '........'		
can0 42B [6] 0F 01 00 00 00 00 '......'		
can0 470 [8] 00 00 02 06 20 00 00 00 '.... ...'		
can0 531 [4] C3 20 30 D3 '. 0.'		
can0 151 [4] 00 A4 A8 0C '....'		
can0 2C3 [1] 07 '.'		
can0 35B [8] 08 1C 0D AC 00 2C 02 F0 '.....,..'		
can0 557 [8] E5 00 00 00 18 00 00 CA '........'		
can0 621 [7] 20 6D 70 31 01 06 00 ' mp1...'		
can0 3C3 [8] AA 00 00 00 80 F0 03 65 '.......e'		
can0 555 [8] E8 5C 69 81 29 00 00 76 '.\i.)..v'		